v3	I(R1)	I(R2)	I(R3)
Step Information: V1=0  (Run: 1/6)
0.000000000000000e+000	0.000000e+000	0.000000e+000	0.000000e+000
1.000000000000000e+000	9.998468e-004	1.496868e-027	9.999844e-004
2.000000000000000e+000	1.999984e-003	1.531567e-027	1.999984e-003
3.000000000000000e+000	2.999984e-003	1.551841e-027	2.999984e-003
4.000000000000000e+000	3.999984e-003	1.566527e-027	3.999984e-003
5.000000000000000e+000	4.999984e-003	1.577493e-027	4.999984e-003
Step Information: V1=1  (Run: 2/6)
0.000000000000000e+000	9.999844e-004	9.999844e-004	1.496873e-027
1.000000000000000e+000	1.413016e-003	9.999844e-004	9.999844e-004
2.000000000000000e+000	2.236041e-003	9.999844e-004	1.999984e-003
3.000000000000000e+000	3.159406e-003	9.999844e-004	2.999984e-003
4.000000000000000e+000	4.123045e-003	9.999844e-004	3.999984e-003
5.000000000000000e+000	5.098481e-003	9.999844e-004	4.999984e-003
Step Information: V1=2  (Run: 3/6)
0.000000000000000e+000	1.999984e-003	1.999984e-003	1.531530e-027
1.000000000000000e+000	2.235636e-003	1.999984e-003	9.999844e-004
2.000000000000000e+000	2.825958e-003	1.999984e-003	1.999984e-003
3.000000000000000e+000	3.605522e-003	1.999984e-003	2.999984e-003
4.000000000000000e+000	4.471952e-003	1.999984e-003	3.999984e-003
5.000000000000000e+000	5.381965e-003	1.999984e-003	4.999984e-003
Step Information: V1=3  (Run: 4/6)
0.000000000000000e+000	2.999984e-003	2.999984e-003	1.551804e-027
1.000000000000000e+000	3.162140e-003	2.999984e-003	9.999844e-004
2.000000000000000e+000	3.603814e-003	2.999984e-003	1.999984e-003
3.000000000000000e+000	4.242614e-003	2.999984e-003	2.999984e-003
4.000000000000000e+000	4.999755e-003	2.999984e-003	3.999984e-003
5.000000000000000e+000	5.830908e-003	2.999984e-003	4.999984e-003
Step Information: V1=4  (Run: 5/6)
0.000000000000000e+000	3.999984e-003	3.999984e-003	1.566188e-027
1.000000000000000e+000	4.123040e-003	3.999984e-003	9.999844e-004
2.000000000000000e+000	4.470874e-003	3.999984e-003	1.999984e-003
3.000000000000000e+000	4.995878e-003	3.999984e-003	2.999984e-003
4.000000000000000e+000	5.656620e-003	3.999984e-003	3.999984e-003
5.000000000000000e+000	6.403078e-003	3.999984e-003	4.999984e-003
Step Information: V1=5  (Run: 6/6)
0.000000000000000e+000	4.999984e-003	4.999984e-003	1.577345e-027
1.000000000000000e+000	5.098973e-003	4.999984e-003	9.999844e-004
2.000000000000000e+000	5.384225e-003	4.999984e-003	1.999984e-003
3.000000000000000e+000	5.828043e-003	4.999984e-003	2.999984e-003
4.000000000000000e+000	6.402937e-003	4.999984e-003	3.999984e-003
5.000000000000000e+000	7.071023e-003	4.999984e-003	4.999984e-003
