v1	V(v_1)	V(v_2)	I(V3)
-1.000000000000000e+000	1.500000e+000	2.500000e+000	-7.569568e-005
-9.990000000000000e-001	1.501000e+000	2.500000e+000	-7.563574e-005
-9.980000000000000e-001	1.502000e+000	2.500000e+000	-7.557523e-005
-9.970000000000000e-001	1.503000e+000	2.500000e+000	-7.551478e-005
-9.960000000000000e-001	1.504000e+000	2.500000e+000	-7.545429e-005
-9.950000000000000e-001	1.505000e+000	2.500000e+000	-7.539368e-005
-9.940000000000000e-001	1.506000e+000	2.500000e+000	-7.533296e-005
-9.930000000000000e-001	1.507000e+000	2.500000e+000	-7.527215e-005
-9.920000000000000e-001	1.508000e+000	2.500000e+000	-7.521122e-005
-9.910000000000000e-001	1.509000e+000	2.500000e+000	-7.515019e-005
-9.900000000000000e-001	1.510000e+000	2.500000e+000	-7.508906e-005
-9.890000000000000e-001	1.511000e+000	2.500000e+000	-7.502783e-005
-9.880000000000000e-001	1.512000e+000	2.500000e+000	-7.496649e-005
-9.870000000000000e-001	1.513000e+000	2.500000e+000	-7.490505e-005
-9.860000000000000e-001	1.514000e+000	2.500000e+000	-7.484351e-005
-9.850000000000000e-001	1.515000e+000	2.500000e+000	-7.478187e-005
-9.840000000000000e-001	1.516000e+000	2.500000e+000	-7.472012e-005
-9.830000000000000e-001	1.517000e+000	2.500000e+000	-7.465827e-005
-9.820000000000000e-001	1.518000e+000	2.500000e+000	-7.459632e-005
-9.810000000000000e-001	1.519000e+000	2.500000e+000	-7.453426e-005
-9.800000000000000e-001	1.520000e+000	2.500000e+000	-7.447211e-005
-9.790000000000000e-001	1.521000e+000	2.500000e+000	-7.440985e-005
-9.780000000000000e-001	1.522000e+000	2.500000e+000	-7.434750e-005
-9.770000000000000e-001	1.523000e+000	2.500000e+000	-7.428503e-005
-9.760000000000000e-001	1.524000e+000	2.500000e+000	-7.422247e-005
-9.750000000000000e-001	1.525000e+000	2.500000e+000	-7.415981e-005
-9.740000000000000e-001	1.526000e+000	2.500000e+000	-7.409705e-005
-9.730000000000000e-001	1.527000e+000	2.500000e+000	-7.403419e-005
-9.720000000000000e-001	1.528000e+000	2.500000e+000	-7.397122e-005
-9.710000000000000e-001	1.529000e+000	2.500000e+000	-7.390816e-005
-9.700000000000000e-001	1.530000e+000	2.500000e+000	-7.384499e-005
-9.690000000000000e-001	1.531000e+000	2.500000e+000	-7.378172e-005
-9.680000000000000e-001	1.532000e+000	2.500000e+000	-7.371837e-005
-9.670000000000000e-001	1.533000e+000	2.500000e+000	-7.365490e-005
-9.660000000000000e-001	1.534000e+000	2.500000e+000	-7.359133e-005
-9.650000000000000e-001	1.535000e+000	2.500000e+000	-7.352768e-005
-9.640000000000000e-001	1.536000e+000	2.500000e+000	-7.346392e-005
-9.630000000000000e-001	1.537000e+000	2.500000e+000	-7.340006e-005
-9.620000000000000e-001	1.538000e+000	2.500000e+000	-7.333609e-005
-9.610000000000000e-001	1.539000e+000	2.500000e+000	-7.327204e-005
-9.600000000000000e-001	1.540000e+000	2.500000e+000	-7.320788e-005
-9.590000000000000e-001	1.541000e+000	2.500000e+000	-7.314363e-005
-9.580000000000000e-001	1.542000e+000	2.500000e+000	-7.307927e-005
-9.570000000000000e-001	1.543000e+000	2.500000e+000	-7.301482e-005
-9.560000000000000e-001	1.544000e+000	2.500000e+000	-7.295028e-005
-9.550000000000000e-001	1.545000e+000	2.500000e+000	-7.288563e-005
-9.540000000000000e-001	1.546000e+000	2.500000e+000	-7.282089e-005
-9.530000000000000e-001	1.547000e+000	2.500000e+000	-7.275605e-005
-9.520000000000000e-001	1.548000e+000	2.500000e+000	-7.269112e-005
-9.510000000000000e-001	1.549000e+000	2.500000e+000	-7.262608e-005
-9.500000000000000e-001	1.550000e+000	2.500000e+000	-7.256095e-005
-9.490000000000000e-001	1.551000e+000	2.500000e+000	-7.249572e-005
-9.480000000000000e-001	1.552000e+000	2.500000e+000	-7.243040e-005
-9.470000000000000e-001	1.553000e+000	2.500000e+000	-7.236497e-005
-9.460000000000000e-001	1.554000e+000	2.500000e+000	-7.229946e-005
-9.450000000000000e-001	1.555000e+000	2.500000e+000	-7.223384e-005
-9.440000000000000e-001	1.556000e+000	2.500000e+000	-7.216814e-005
-9.430000000000000e-001	1.557000e+000	2.500000e+000	-7.210233e-005
-9.420000000000000e-001	1.558000e+000	2.500000e+000	-7.203643e-005
-9.410000000000000e-001	1.559000e+000	2.500000e+000	-7.197043e-005
-9.400000000000000e-001	1.560000e+000	2.500000e+000	-7.190435e-005
-9.390000000000000e-001	1.561000e+000	2.500000e+000	-7.183816e-005
-9.379999999999999e-001	1.562000e+000	2.500000e+000	-7.177188e-005
-9.369999999999999e-001	1.563000e+000	2.500000e+000	-7.170550e-005
-9.359999999999999e-001	1.564000e+000	2.500000e+000	-7.163903e-005
-9.349999999999999e-001	1.565000e+000	2.500000e+000	-7.157247e-005
-9.339999999999999e-001	1.566000e+000	2.500000e+000	-7.150580e-005
-9.329999999999999e-001	1.567000e+000	2.500000e+000	-7.143905e-005
-9.319999999999999e-001	1.568000e+000	2.500000e+000	-7.137220e-005
-9.309999999999999e-001	1.569000e+000	2.500000e+000	-7.130526e-005
-9.299999999999999e-001	1.570000e+000	2.500000e+000	-7.123822e-005
-9.289999999999999e-001	1.571000e+000	2.500000e+000	-7.117110e-005
-9.279999999999999e-001	1.572000e+000	2.500000e+000	-7.110387e-005
-9.269999999999999e-001	1.573000e+000	2.500000e+000	-7.103656e-005
-9.259999999999999e-001	1.574000e+000	2.500000e+000	-7.096914e-005
-9.249999999999999e-001	1.575000e+000	2.500000e+000	-7.090165e-005
-9.239999999999999e-001	1.576000e+000	2.500000e+000	-7.083405e-005
-9.229999999999999e-001	1.577000e+000	2.500000e+000	-7.076636e-005
-9.219999999999999e-001	1.578000e+000	2.500000e+000	-7.069858e-005
-9.209999999999999e-001	1.579000e+000	2.500000e+000	-7.063070e-005
-9.199999999999999e-001	1.580000e+000	2.500000e+000	-7.056274e-005
-9.189999999999999e-001	1.581000e+000	2.500000e+000	-7.049468e-005
-9.179999999999999e-001	1.582000e+000	2.500000e+000	-7.042653e-005
-9.169999999999999e-001	1.583000e+000	2.500000e+000	-7.035829e-005
-9.159999999999999e-001	1.584000e+000	2.500000e+000	-7.028996e-005
-9.149999999999999e-001	1.585000e+000	2.500000e+000	-7.022153e-005
-9.139999999999999e-001	1.586000e+000	2.500000e+000	-7.015302e-005
-9.129999999999999e-001	1.587000e+000	2.500000e+000	-7.008440e-005
-9.119999999999999e-001	1.588000e+000	2.500000e+000	-7.001570e-005
-9.109999999999999e-001	1.589000e+000	2.500000e+000	-6.994691e-005
-9.099999999999999e-001	1.590000e+000	2.500000e+000	-6.987803e-005
-9.089999999999999e-001	1.591000e+000	2.500000e+000	-6.980906e-005
-9.079999999999999e-001	1.592000e+000	2.500000e+000	-6.974000e-005
-9.069999999999999e-001	1.593000e+000	2.500000e+000	-6.967084e-005
-9.059999999999999e-001	1.594000e+000	2.500000e+000	-6.960159e-005
-9.049999999999999e-001	1.595000e+000	2.500000e+000	-6.953226e-005
-9.039999999999999e-001	1.596000e+000	2.500000e+000	-6.946283e-005
-9.029999999999999e-001	1.597000e+000	2.500000e+000	-6.939332e-005
-9.019999999999999e-001	1.598000e+000	2.500000e+000	-6.932371e-005
-9.009999999999999e-001	1.599000e+000	2.500000e+000	-6.925401e-005
-8.999999999999999e-001	1.600000e+000	2.500000e+000	-6.918423e-005
-8.989999999999999e-001	1.601000e+000	2.500000e+000	-6.911435e-005
-8.979999999999999e-001	1.602000e+000	2.500000e+000	-6.904439e-005
-8.969999999999999e-001	1.603000e+000	2.500000e+000	-6.897433e-005
-8.959999999999999e-001	1.604000e+000	2.500000e+000	-6.890419e-005
-8.949999999999999e-001	1.605000e+000	2.500000e+000	-6.883396e-005
-8.939999999999999e-001	1.606000e+000	2.500000e+000	-6.876364e-005
-8.929999999999999e-001	1.607000e+000	2.500000e+000	-6.869323e-005
-8.919999999999999e-001	1.608000e+000	2.500000e+000	-6.862273e-005
-8.909999999999999e-001	1.609000e+000	2.500000e+000	-6.855214e-005
-8.899999999999999e-001	1.610000e+000	2.500000e+000	-6.848147e-005
-8.889999999999999e-001	1.611000e+000	2.500000e+000	-6.841070e-005
-8.879999999999999e-001	1.612000e+000	2.500000e+000	-6.833985e-005
-8.869999999999999e-001	1.613000e+000	2.500000e+000	-6.826891e-005
-8.859999999999999e-001	1.614000e+000	2.500000e+000	-6.819788e-005
-8.849999999999999e-001	1.615000e+000	2.500000e+000	-6.812676e-005
-8.839999999999999e-001	1.616000e+000	2.500000e+000	-6.805556e-005
-8.829999999999999e-001	1.617000e+000	2.500000e+000	-6.798426e-005
-8.819999999999999e-001	1.618000e+000	2.500000e+000	-6.791289e-005
-8.809999999999999e-001	1.619000e+000	2.500000e+000	-6.784142e-005
-8.799999999999999e-001	1.620000e+000	2.500000e+000	-6.776986e-005
-8.789999999999999e-001	1.621000e+000	2.500000e+000	-6.769822e-005
-8.779999999999999e-001	1.622000e+000	2.500000e+000	-6.762650e-005
-8.769999999999999e-001	1.623000e+000	2.500000e+000	-6.755468e-005
-8.759999999999999e-001	1.624000e+000	2.500000e+000	-6.748278e-005
-8.749999999999999e-001	1.625000e+000	2.500000e+000	-6.741079e-005
-8.739999999999999e-001	1.626000e+000	2.500000e+000	-6.733871e-005
-8.729999999999999e-001	1.627000e+000	2.500000e+000	-6.726655e-005
-8.719999999999999e-001	1.628000e+000	2.500000e+000	-6.719430e-005
-8.709999999999999e-001	1.629000e+000	2.500000e+000	-6.712196e-005
-8.699999999999999e-001	1.630000e+000	2.500000e+000	-6.704954e-005
-8.689999999999999e-001	1.631000e+000	2.500000e+000	-6.697703e-005
-8.679999999999999e-001	1.632000e+000	2.500000e+000	-6.690444e-005
-8.669999999999999e-001	1.633000e+000	2.500000e+000	-6.683175e-005
-8.659999999999999e-001	1.634000e+000	2.500000e+000	-6.675899e-005
-8.649999999999999e-001	1.635000e+000	2.500000e+000	-6.668614e-005
-8.639999999999999e-001	1.636000e+000	2.500000e+000	-6.661320e-005
-8.629999999999999e-001	1.637000e+000	2.500000e+000	-6.654017e-005
-8.619999999999999e-001	1.638000e+000	2.500000e+000	-6.646707e-005
-8.609999999999999e-001	1.639000e+000	2.500000e+000	-6.639388e-005
-8.599999999999999e-001	1.640000e+000	2.500000e+000	-6.632059e-005
-8.589999999999999e-001	1.641000e+000	2.500000e+000	-6.624723e-005
-8.579999999999999e-001	1.642000e+000	2.500000e+000	-6.617378e-005
-8.569999999999999e-001	1.643000e+000	2.500000e+000	-6.610025e-005
-8.559999999999999e-001	1.644000e+000	2.500000e+000	-6.602663e-005
-8.549999999999999e-001	1.645000e+000	2.500000e+000	-6.595293e-005
-8.539999999999999e-001	1.646000e+000	2.500000e+000	-6.587913e-005
-8.529999999999999e-001	1.647000e+000	2.500000e+000	-6.580526e-005
-8.519999999999999e-001	1.648000e+000	2.500000e+000	-6.573131e-005
-8.509999999999999e-001	1.649000e+000	2.500000e+000	-6.565726e-005
-8.499999999999999e-001	1.650000e+000	2.500000e+000	-6.558313e-005
-8.489999999999999e-001	1.651000e+000	2.500000e+000	-6.550892e-005
-8.479999999999999e-001	1.652000e+000	2.500000e+000	-6.543463e-005
-8.469999999999999e-001	1.653000e+000	2.500000e+000	-6.536025e-005
-8.459999999999999e-001	1.654000e+000	2.500000e+000	-6.528579e-005
-8.449999999999999e-001	1.655000e+000	2.500000e+000	-6.521124e-005
-8.439999999999999e-001	1.656000e+000	2.500000e+000	-6.513661e-005
-8.429999999999999e-001	1.657000e+000	2.500000e+000	-6.506190e-005
-8.419999999999999e-001	1.658000e+000	2.500000e+000	-6.498710e-005
-8.409999999999999e-001	1.659000e+000	2.500000e+000	-6.491222e-005
-8.399999999999999e-001	1.660000e+000	2.500000e+000	-6.483725e-005
-8.389999999999999e-001	1.661000e+000	2.500000e+000	-6.476221e-005
-8.379999999999999e-001	1.662000e+000	2.500000e+000	-6.468708e-005
-8.369999999999999e-001	1.663000e+000	2.500000e+000	-6.461186e-005
-8.359999999999999e-001	1.664000e+000	2.500000e+000	-6.453656e-005
-8.349999999999999e-001	1.665000e+000	2.500000e+000	-6.446118e-005
-8.339999999999999e-001	1.666000e+000	2.500000e+000	-6.438571e-005
-8.329999999999999e-001	1.667000e+000	2.500000e+000	-6.431017e-005
-8.319999999999999e-001	1.668000e+000	2.500000e+000	-6.423454e-005
-8.309999999999999e-001	1.669000e+000	2.500000e+000	-6.415883e-005
-8.299999999999999e-001	1.670000e+000	2.500000e+000	-6.408303e-005
-8.289999999999999e-001	1.671000e+000	2.500000e+000	-6.400715e-005
-8.279999999999999e-001	1.672000e+000	2.500000e+000	-6.393119e-005
-8.269999999999999e-001	1.673000e+000	2.500000e+000	-6.385515e-005
-8.259999999999999e-001	1.674000e+000	2.500000e+000	-6.377903e-005
-8.249999999999998e-001	1.675000e+000	2.500000e+000	-6.370282e-005
-8.239999999999998e-001	1.676000e+000	2.500000e+000	-6.362653e-005
-8.229999999999998e-001	1.677000e+000	2.500000e+000	-6.355016e-005
-8.219999999999998e-001	1.678000e+000	2.500000e+000	-6.347370e-005
-8.209999999999998e-001	1.679000e+000	2.500000e+000	-6.339716e-005
-8.199999999999998e-001	1.680000e+000	2.500000e+000	-6.332055e-005
-8.189999999999998e-001	1.681000e+000	2.500000e+000	-6.324385e-005
-8.179999999999998e-001	1.682000e+000	2.500000e+000	-6.316707e-005
-8.169999999999998e-001	1.683000e+000	2.500000e+000	-6.309021e-005
-8.159999999999998e-001	1.684000e+000	2.500000e+000	-6.301326e-005
-8.149999999999998e-001	1.685000e+000	2.500000e+000	-6.293623e-005
-8.139999999999998e-001	1.686000e+000	2.500000e+000	-6.285912e-005
-8.129999999999998e-001	1.687000e+000	2.500000e+000	-6.278193e-005
-8.119999999999998e-001	1.688000e+000	2.500000e+000	-6.270466e-005
-8.109999999999998e-001	1.689000e+000	2.500000e+000	-6.262731e-005
-8.099999999999998e-001	1.690000e+000	2.500000e+000	-6.254988e-005
-8.089999999999998e-001	1.691000e+000	2.500000e+000	-6.247236e-005
-8.079999999999998e-001	1.692000e+000	2.500000e+000	-6.239476e-005
-8.069999999999998e-001	1.693000e+000	2.500000e+000	-6.231709e-005
-8.059999999999998e-001	1.694000e+000	2.500000e+000	-6.223933e-005
-8.049999999999998e-001	1.695000e+000	2.500000e+000	-6.216149e-005
-8.039999999999998e-001	1.696000e+000	2.500000e+000	-6.208356e-005
-8.029999999999998e-001	1.697000e+000	2.500000e+000	-6.200557e-005
-8.019999999999998e-001	1.698000e+000	2.500000e+000	-6.192748e-005
-8.009999999999998e-001	1.699000e+000	2.500000e+000	-6.184931e-005
-7.999999999999998e-001	1.700000e+000	2.500000e+000	-6.177107e-005
-7.989999999999998e-001	1.701000e+000	2.500000e+000	-6.169275e-005
-7.979999999999998e-001	1.702000e+000	2.500000e+000	-6.161434e-005
-7.969999999999998e-001	1.703000e+000	2.500000e+000	-6.153585e-005
-7.959999999999998e-001	1.704000e+000	2.500000e+000	-6.145729e-005
-7.949999999999998e-001	1.705000e+000	2.500000e+000	-6.137864e-005
-7.939999999999998e-001	1.706000e+000	2.500000e+000	-6.129991e-005
-7.929999999999998e-001	1.707000e+000	2.500000e+000	-6.122110e-005
-7.919999999999998e-001	1.708000e+000	2.500000e+000	-6.114221e-005
-7.909999999999998e-001	1.709000e+000	2.500000e+000	-6.106324e-005
-7.899999999999998e-001	1.710000e+000	2.500000e+000	-6.098419e-005
-7.889999999999998e-001	1.711000e+000	2.500000e+000	-6.090506e-005
-7.879999999999998e-001	1.712000e+000	2.500000e+000	-6.082585e-005
-7.869999999999998e-001	1.713000e+000	2.500000e+000	-6.074656e-005
-7.859999999999998e-001	1.714000e+000	2.500000e+000	-6.066719e-005
-7.849999999999998e-001	1.715000e+000	2.500000e+000	-6.058773e-005
-7.839999999999998e-001	1.716000e+000	2.500000e+000	-6.050820e-005
-7.829999999999998e-001	1.717000e+000	2.500000e+000	-6.042859e-005
-7.819999999999998e-001	1.718000e+000	2.500000e+000	-6.034890e-005
-7.809999999999998e-001	1.719000e+000	2.500000e+000	-6.026913e-005
-7.799999999999998e-001	1.720000e+000	2.500000e+000	-6.018928e-005
-7.789999999999998e-001	1.721000e+000	2.500000e+000	-6.010934e-005
-7.779999999999998e-001	1.722000e+000	2.500000e+000	-6.002933e-005
-7.769999999999998e-001	1.723000e+000	2.500000e+000	-5.994924e-005
-7.759999999999998e-001	1.724000e+000	2.500000e+000	-5.986907e-005
-7.749999999999998e-001	1.725000e+000	2.500000e+000	-5.978881e-005
-7.739999999999998e-001	1.726000e+000	2.500000e+000	-5.970848e-005
-7.729999999999998e-001	1.727000e+000	2.500000e+000	-5.962807e-005
-7.719999999999998e-001	1.728000e+000	2.500000e+000	-5.954758e-005
-7.709999999999998e-001	1.729000e+000	2.500000e+000	-5.946701e-005
-7.699999999999998e-001	1.730000e+000	2.500000e+000	-5.938636e-005
-7.689999999999998e-001	1.731000e+000	2.500000e+000	-5.930563e-005
-7.679999999999998e-001	1.732000e+000	2.500000e+000	-5.922482e-005
-7.669999999999998e-001	1.733000e+000	2.500000e+000	-5.914393e-005
-7.659999999999998e-001	1.734000e+000	2.500000e+000	-5.906296e-005
-7.649999999999998e-001	1.735000e+000	2.500000e+000	-5.898191e-005
-7.639999999999998e-001	1.736000e+000	2.500000e+000	-5.890079e-005
-7.629999999999998e-001	1.737000e+000	2.500000e+000	-5.881958e-005
-7.619999999999998e-001	1.738000e+000	2.500000e+000	-5.873829e-005
-7.609999999999998e-001	1.739000e+000	2.500000e+000	-5.865692e-005
-7.599999999999998e-001	1.740000e+000	2.500000e+000	-5.857548e-005
-7.589999999999998e-001	1.741000e+000	2.500000e+000	-5.849395e-005
-7.579999999999998e-001	1.742000e+000	2.500000e+000	-5.841235e-005
-7.569999999999998e-001	1.743000e+000	2.500000e+000	-5.833066e-005
-7.559999999999998e-001	1.744000e+000	2.500000e+000	-5.824890e-005
-7.549999999999998e-001	1.745000e+000	2.500000e+000	-5.816705e-005
-7.539999999999998e-001	1.746000e+000	2.500000e+000	-5.808513e-005
-7.529999999999998e-001	1.747000e+000	2.500000e+000	-5.800313e-005
-7.519999999999998e-001	1.748000e+000	2.500000e+000	-5.792105e-005
-7.509999999999998e-001	1.749000e+000	2.500000e+000	-5.783889e-005
-7.499999999999998e-001	1.750000e+000	2.500000e+000	-5.775665e-005
-7.489999999999998e-001	1.751000e+000	2.500000e+000	-5.767433e-005
-7.479999999999998e-001	1.752000e+000	2.500000e+000	-5.759193e-005
-7.469999999999998e-001	1.753000e+000	2.500000e+000	-5.750945e-005
-7.459999999999998e-001	1.754000e+000	2.500000e+000	-5.742690e-005
-7.449999999999998e-001	1.755000e+000	2.500000e+000	-5.734426e-005
-7.439999999999998e-001	1.756000e+000	2.500000e+000	-5.726155e-005
-7.429999999999998e-001	1.757000e+000	2.500000e+000	-5.717875e-005
-7.419999999999998e-001	1.758000e+000	2.500000e+000	-5.709588e-005
-7.409999999999998e-001	1.759000e+000	2.500000e+000	-5.701292e-005
-7.399999999999998e-001	1.760000e+000	2.500000e+000	-5.692989e-005
-7.389999999999998e-001	1.761000e+000	2.500000e+000	-5.684678e-005
-7.379999999999998e-001	1.762000e+000	2.500000e+000	-5.676359e-005
-7.369999999999998e-001	1.763000e+000	2.500000e+000	-5.668032e-005
-7.359999999999998e-001	1.764000e+000	2.500000e+000	-5.659697e-005
-7.349999999999998e-001	1.765000e+000	2.500000e+000	-5.651355e-005
-7.339999999999998e-001	1.766000e+000	2.500000e+000	-5.643004e-005
-7.329999999999998e-001	1.767000e+000	2.500000e+000	-5.634645e-005
-7.319999999999998e-001	1.768000e+000	2.500000e+000	-5.626279e-005
-7.309999999999998e-001	1.769000e+000	2.500000e+000	-5.617904e-005
-7.299999999999998e-001	1.770000e+000	2.500000e+000	-5.609522e-005
-7.289999999999998e-001	1.771000e+000	2.500000e+000	-5.601132e-005
-7.279999999999998e-001	1.772000e+000	2.500000e+000	-5.592734e-005
-7.269999999999998e-001	1.773000e+000	2.500000e+000	-5.584328e-005
-7.259999999999998e-001	1.774000e+000	2.500000e+000	-5.575914e-005
-7.249999999999998e-001	1.775000e+000	2.500000e+000	-5.567493e-005
-7.239999999999998e-001	1.776000e+000	2.500000e+000	-5.559063e-005
-7.229999999999998e-001	1.777000e+000	2.500000e+000	-5.550625e-005
-7.219999999999998e-001	1.778000e+000	2.500000e+000	-5.542180e-005
-7.209999999999998e-001	1.779000e+000	2.500000e+000	-5.533727e-005
-7.199999999999998e-001	1.780000e+000	2.500000e+000	-5.525266e-005
-7.189999999999998e-001	1.781000e+000	2.500000e+000	-5.516797e-005
-7.179999999999998e-001	1.782000e+000	2.500000e+000	-5.508320e-005
-7.169999999999998e-001	1.783000e+000	2.500000e+000	-5.499835e-005
-7.159999999999998e-001	1.784000e+000	2.500000e+000	-5.491343e-005
-7.149999999999998e-001	1.785000e+000	2.500000e+000	-5.482843e-005
-7.139999999999998e-001	1.786000e+000	2.500000e+000	-5.474334e-005
-7.129999999999998e-001	1.787000e+000	2.500000e+000	-5.465818e-005
-7.119999999999997e-001	1.788000e+000	2.500000e+000	-5.457294e-005
-7.109999999999997e-001	1.789000e+000	2.500000e+000	-5.448762e-005
-7.099999999999997e-001	1.790000e+000	2.500000e+000	-5.440223e-005
-7.089999999999997e-001	1.791000e+000	2.500000e+000	-5.431675e-005
-7.079999999999997e-001	1.792000e+000	2.500000e+000	-5.423120e-005
