time	V(v_1)	V(vout)
0.000000000000000e+000	0.000000e+000	1.593242e-001
6.835937387981647e-014	0.000000e+000	1.593242e-001
2.734374955192659e-013	0.000000e+000	1.593242e-001
1.000000000000000e-007	0.000000e+000	1.593242e-001
1.000095604510080e-007	3.333333e+000	1.608837e-001
1.000286813530240e-007	5.000000e+000	1.616045e-001
1.000428032928926e-007	5.000000e+000	1.615492e-001
1.000571057884256e-007	5.000000e+000	1.614962e-001
1.000857107794914e-007	5.000000e+000	1.613978e-001
1.001429207616230e-007	5.000000e+000	1.612269e-001
1.002573407258862e-007	5.000000e+000	1.609669e-001
1.004861806544127e-007	5.000000e+000	1.606319e-001
1.007187125596454e-007	5.000000e+000	1.604721e-001
1.010124016565098e-007	5.000000e+000	1.604669e-001
1.013369262834871e-007	5.000000e+000	1.606287e-001
1.018320845225595e-007	5.000000e+000	1.610775e-001
1.024905794297103e-007	5.000000e+000	1.618538e-001
1.035576496665540e-007	5.000000e+000	1.632619e-001
1.045189695677717e-007	5.000000e+000	1.645704e-001
1.054689916862989e-007	5.000000e+000	1.658864e-001
1.063000164647375e-007	5.000000e+000	1.670953e-001
1.072089890677615e-007	5.000000e+000	1.685041e-001
1.073436429575983e-007	5.000000e+000	1.687272e-001
1.076129507372717e-007	5.000000e+000	1.692018e-001
1.081515662966187e-007	5.000000e+000	1.702048e-001
1.087886101503658e-007	5.000000e+000	1.714843e-001
1.094535095688494e-007	5.000000e+000	1.729479e-001
1.101356753808363e-007	5.000000e+000	1.746195e-001
1.109894950484849e-007	5.000000e+000	1.769900e-001
1.119576643205159e-007	5.000000e+000	1.801389e-001
1.132538272698467e-007	5.000000e+000	1.854260e-001
1.153630528106043e-007	5.000000e+000	1.965239e-001
1.173737993560683e-007	5.000000e+000	2.099728e-001
1.191488539532733e-007	5.000000e+000	2.246017e-001
1.213713415194672e-007	5.000000e+000	2.458584e-001
1.232932633805103e-007	5.000000e+000	2.661475e-001
1.257823503636389e-007	5.000000e+000	2.940229e-001
1.283101727530354e-007	5.000000e+000	3.231271e-001
1.313402784108692e-007	5.000000e+000	3.585146e-001
1.342198790980805e-007	5.000000e+000	3.923317e-001
1.374174273715690e-007	5.000000e+000	4.299240e-001
1.413802798768537e-007	5.000000e+000	4.764704e-001
1.453580708350874e-007	5.000000e+000	5.231076e-001
1.658658833350874e-007	5.000000e+000	7.622542e-001
1.727018208350874e-007	5.000000e+000	8.414303e-001
1.863736958350874e-007	5.000000e+000	9.988623e-001
2.068815083350875e-007	5.000000e+000	1.232478e+000
2.273893208350875e-007	5.000000e+000	1.462658e+000
2.342252583350875e-007	5.000000e+000	1.538530e+000
2.410611958350875e-007	5.000000e+000	1.613928e+000
2.478971333350875e-007	5.000000e+000	1.688816e+000
2.547330708350875e-007	5.000000e+000	1.763282e+000
2.555875630225875e-007	5.000000e+000	1.772547e+000
2.572965473975875e-007	5.000000e+000	1.791009e+000
2.607145161475875e-007	5.000000e+000	1.827805e+000
2.659599543327796e-007	5.000000e+000	1.883977e+000
2.711971178174339e-007	5.000000e+000	1.939640e+000
2.756142207895711e-007	5.000000e+000	1.986087e+000
2.792295663232941e-007	5.000000e+000	2.023595e+000
2.823089201400916e-007	5.000000e+000	2.055078e+000
2.856606375289248e-007	5.000000e+000	2.088841e+000
2.901931576257499e-007	5.000000e+000	2.133819e+000
2.953588910331949e-007	5.000000e+000	2.184212e+000
3.021948285331949e-007	5.000000e+000	2.249589e+000
3.090307660331949e-007	5.000000e+000	2.313520e+000
3.158667035331950e-007	5.000000e+000	2.375879e+000
3.227026410331950e-007	5.000000e+000	2.436612e+000
3.295385785331950e-007	5.000000e+000	2.495651e+000
3.363745160331950e-007	5.000000e+000	2.552941e+000
3.432104535331950e-007	5.000000e+000	2.608461e+000
3.568823285331950e-007	5.000000e+000	2.714279e+000
3.705542035331950e-007	5.000000e+000	2.813503e+000
3.842260785331950e-007	5.000000e+000	2.906608e+000
3.978979535331950e-007	5.000000e+000	2.994029e+000
4.115698285331951e-007	5.000000e+000	3.076177e+000
4.252417035331951e-007	5.000000e+000	3.153435e+000
4.389135785331951e-007	5.000000e+000	3.226157e+000
4.525854535331951e-007	5.000000e+000	3.294671e+000
4.662573285331951e-007	5.000000e+000	3.359277e+000
4.799292035331951e-007	5.000000e+000	3.420254e+000
4.936010785331950e-007	5.000000e+000	3.477857e+000
5.072729535331949e-007	5.000000e+000	3.532321e+000
5.209448285331948e-007	5.000000e+000	3.583863e+000
5.346167035331947e-007	5.000000e+000	3.632680e+000
5.482885785331946e-007	5.000000e+000	3.678957e+000
5.619604535331945e-007	5.000000e+000	3.722861e+000
5.756323285331944e-007	5.000000e+000	3.764548e+000
5.893042035331943e-007	5.000000e+000	3.804159e+000
6.029760785331943e-007	5.000000e+000	3.841829e+000
6.166479535331942e-007	5.000000e+000	3.877676e+000
6.303198285331941e-007	5.000000e+000	3.911815e+000
6.439917035331940e-007	5.000000e+000	3.944349e+000
6.576635785331939e-007	5.000000e+000	3.975374e+000
6.713354535331938e-007	5.000000e+000	4.004978e+000
6.850073285331937e-007	5.000000e+000	4.033245e+000
6.986792035331936e-007	5.000000e+000	4.060249e+000
7.123510785331935e-007	5.000000e+000	4.086063e+000
7.260229535331934e-007	5.000000e+000	4.110752e+000
7.396948285331933e-007	5.000000e+000	4.134377e+000
7.533667035331932e-007	5.000000e+000	4.156997e+000
7.670385785331932e-007	5.000000e+000	4.178662e+000
7.807104535331931e-007	5.000000e+000	4.199423e+000
7.943823285331930e-007	5.000000e+000	4.219324e+000
8.080542035331929e-007	5.000000e+000	4.238409e+000
8.217260785331928e-007	5.000000e+000	4.256718e+000
8.353979535331927e-007	5.000000e+000	4.274289e+000
8.490698285331926e-007	5.000000e+000	4.291156e+000
8.695776410331925e-007	5.000000e+000	4.315208e+000
8.900854535331923e-007	5.000000e+000	4.337852e+000
9.037573285331924e-007	5.000000e+000	4.352156e+000
9.174292035331923e-007	5.000000e+000	4.365957e+000
9.311010785331923e-007	5.000000e+000	4.379253e+000
9.447729535331923e-007	5.000000e+000	4.392045e+000
9.584448285331922e-007	5.000000e+000	4.404332e+000
9.721167035331923e-007	5.000000e+000	4.416116e+000
9.857885785331922e-007	5.000000e+000	4.427395e+000
1.017038578533193e-006	5.000000e+000	4.451293e+000
1.048288578533193e-006	5.000000e+000	4.473531e+000
1.079538578533193e-006	5.000000e+000	4.494109e+000
1.110788578533193e-006	5.000000e+000	4.513027e+000
1.142038578533194e-006	5.000000e+000	4.530285e+000
1.173288578533194e-006	5.000000e+000	4.545882e+000
1.204538578533194e-006	5.000000e+000	4.559819e+000
1.237741703533195e-006	5.000000e+000	4.573464e+000
1.270944828533195e-006	5.000000e+000	4.586131e+000
1.304147953533195e-006	5.000000e+000	4.597819e+000
1.337351078533195e-006	5.000000e+000	4.608529e+000
1.370554203533196e-006	5.000000e+000	4.618260e+000
1.403757328533196e-006	5.000000e+000	4.627012e+000
1.436960453533196e-006	5.000000e+000	4.634786e+000
1.466257328533197e-006	5.000000e+000	4.641171e+000
1.495554203533197e-006	5.000000e+000	4.647146e+000
1.524851078533197e-006	5.000000e+000	4.652709e+000
1.554147953533197e-006	5.000000e+000	4.657862e+000
1.583444828533197e-006	5.000000e+000	4.662603e+000
1.612741703533198e-006	5.000000e+000	4.666933e+000
1.642038578533198e-006	5.000000e+000	4.670853e+000
1.648874516033198e-006	5.000000e+000	4.671741e+000
1.686960453533199e-006	5.000000e+000	4.676301e+000
1.725046391033199e-006	5.000000e+000	4.680503e+000
1.763132328533199e-006	5.000000e+000	4.684348e+000
1.801218266033199e-006	5.000000e+000	4.687836e+000
1.839304203533200e-006	5.000000e+000	4.690966e+000
1.877390141033200e-006	5.000000e+000	4.693739e+000
1.915476078533200e-006	5.000000e+000	4.696155e+000
1.958444828533201e-006	5.000000e+000	4.698623e+000
2.001413578533201e-006	5.000000e+000	4.700880e+000
2.044382328533201e-006	5.000000e+000	4.702926e+000
2.087351078533202e-006	5.000000e+000	4.704762e+000
2.130319828533202e-006	5.000000e+000	4.706387e+000
2.173288578533203e-006	5.000000e+000	4.707802e+000
2.216257328533203e-006	5.000000e+000	4.709006e+000
2.268991703533204e-006	5.000000e+000	4.710319e+000
2.321726078533204e-006	5.000000e+000	4.711503e+000
2.374460453533205e-006	5.000000e+000	4.712558e+000
2.427194828533205e-006	5.000000e+000	4.713483e+000
2.479929203533206e-006	5.000000e+000	4.714280e+000
2.532663578533206e-006	5.000000e+000	4.714947e+000
2.585397953533206e-006	5.000000e+000	4.715485e+000
2.658640141033207e-006	5.000000e+000	4.716125e+000
2.731882328533208e-006	5.000000e+000	4.716687e+000
2.805124516033208e-006	5.000000e+000	4.717172e+000
2.878366703533209e-006	5.000000e+000	4.717580e+000
2.951608891033210e-006	5.000000e+000	4.717909e+000
3.024851078533210e-006	5.000000e+000	4.718161e+000
3.098093266033211e-006	5.000000e+000	4.718336e+000
3.183054203533212e-006	5.000000e+000	4.718517e+000
3.268015141033212e-006	5.000000e+000	4.718674e+000
3.352976078533213e-006	5.000000e+000	4.718807e+000
3.437937016033214e-006	5.000000e+000	4.718917e+000
3.522897953533215e-006	5.000000e+000	4.719002e+000
3.607858891033215e-006	5.000000e+000	4.719063e+000
3.692819828533216e-006	5.000000e+000	4.719101e+000
3.699655766033216e-006	5.000000e+000	4.719105e+000
4.093164062500001e-006	5.000000e+000	4.719229e+000
4.100000000000001e-006	2.998726e+000	4.718360e+000
4.101703544690953e-006	6.930111e-001	4.716980e+000
4.102356883147311e-006	0.000000e+000	4.715814e+000
4.102638659032458e-006	0.000000e+000	4.715007e+000
4.102846464690272e-006	0.000000e+000	4.714284e+000
4.103085328968235e-006	0.000000e+000	4.713468e+000
4.103452932677454e-006	0.000000e+000	4.712236e+000
4.104060602908252e-006	0.000000e+000	4.710260e+000
4.104685620692027e-006	0.000000e+000	4.708312e+000
4.105420126046306e-006	0.000000e+000	4.706124e+000
4.105971092581152e-006	0.000000e+000	4.704548e+000
4.106637513112786e-006	0.000000e+000	4.702700e+000
4.107277755103116e-006	0.000000e+000	4.700949e+000
4.107966606874754e-006	0.000000e+000	4.699057e+000
4.108627355247096e-006	0.000000e+000	4.697178e+000
4.109532788621826e-006	0.000000e+000	4.694409e+000
4.110498299072326e-006	0.000000e+000	4.691059e+000
4.111769228664026e-006	0.000000e+000	4.685722e+000
4.113586372233483e-006	0.000000e+000	4.675983e+000
4.116244812981317e-006	0.000000e+000	4.657915e+000
4.118466383115979e-006	0.000000e+000	4.639244e+000
4.120919407116923e-006	0.000000e+000	4.614759e+000
4.123260390966440e-006	0.000000e+000	4.588188e+000
4.125934370472665e-006	0.000000e+000	4.554655e+000
4.128610187175479e-006	0.000000e+000	4.518688e+000
4.131333759774407e-006	0.000000e+000	4.480481e+000
4.134259048873953e-006	0.000000e+000	4.438603e+000
4.137719951706482e-006	0.000000e+000	4.388700e+000
4.141451270622007e-006	0.000000e+000	4.334821e+000
4.145844227914487e-006	0.000000e+000	4.271429e+000
4.152680165414487e-006	0.000000e+000	4.172933e+000
4.159516102914487e-006	0.000000e+000	4.074644e+000
4.166352040414487e-006	0.000000e+000	3.976619e+000
4.173187977914487e-006	0.000000e+000	3.878897e+000
4.180023915414487e-006	0.000000e+000	3.781518e+000
4.186859852914487e-006	0.000000e+000	3.684527e+000
4.193695790414488e-006	0.000000e+000	3.587974e+000
4.207367665414488e-006	0.000000e+000	3.396430e+000
4.214203602914488e-006	0.000000e+000	3.301601e+000
4.221039540414488e-006	0.000000e+000	3.207551e+000
4.227875477914488e-006	0.000000e+000	3.114445e+000
4.234711415414488e-006	0.000000e+000	3.022498e+000
4.241547352914488e-006	0.000000e+000	2.931985e+000
4.248383290414488e-006	0.000000e+000	2.843280e+000
4.255219227914488e-006	0.000000e+000	2.756869e+000
4.262055165414488e-006	0.000000e+000	2.673242e+000
4.268891102914488e-006	0.000000e+000	2.592706e+000
4.275727040414488e-006	0.000000e+000	2.515314e+000
4.282562977914488e-006	0.000000e+000	2.440985e+000
4.289398915414488e-006	0.000000e+000	2.369629e+000
4.296234852914488e-006	0.000000e+000	2.301180e+000
4.303070790414488e-006	0.000000e+000	2.235578e+000
4.309906727914489e-006	0.000000e+000	2.172767e+000
4.316742665414489e-006	0.000000e+000	2.112692e+000
4.323578602914489e-006	0.000000e+000	2.055295e+000
4.330414540414489e-006	0.000000e+000	2.000512e+000
4.337250477914489e-006	0.000000e+000	1.948261e+000
4.344086415414489e-006	0.000000e+000	1.898437e+000
4.350922352914489e-006	0.000000e+000	1.850915e+000
4.357758290414489e-006	0.000000e+000	1.805572e+000
4.364594227914489e-006	0.000000e+000	1.762287e+000
4.371430165414489e-006	0.000000e+000	1.720947e+000
4.378266102914489e-006	0.000000e+000	1.681443e+000
4.385102040414489e-006	0.000000e+000	1.643673e+000
4.391937977914489e-006	0.000000e+000	1.607540e+000
4.398773915414489e-006	0.000000e+000	1.572952e+000
4.405609852914489e-006	0.000000e+000	1.539824e+000
4.412445790414489e-006	0.000000e+000	1.508073e+000
4.419281727914490e-006	0.000000e+000	1.477624e+000
4.426117665414490e-006	0.000000e+000	1.448403e+000
4.432953602914490e-006	0.000000e+000	1.420344e+000
4.439789540414490e-006	0.000000e+000	1.393384e+000
4.446625477914490e-006	0.000000e+000	1.367461e+000
4.453461415414490e-006	0.000000e+000	1.342520e+000
4.460297352914490e-006	0.000000e+000	1.318509e+000
4.467133290414490e-006	0.000000e+000	1.295378e+000
4.473969227914490e-006	0.000000e+000	1.273080e+000
4.480805165414490e-006	0.000000e+000	1.251572e+000
4.487641102914490e-006	0.000000e+000	1.230813e+000
4.494477040414490e-006	0.000000e+000	1.210763e+000
4.501312977914490e-006	0.000000e+000	1.191387e+000
4.514984852914490e-006	0.000000e+000	1.154523e+000
4.528656727914490e-006	0.000000e+000	1.119969e+000
4.542328602914491e-006	0.000000e+000	1.087505e+000
4.556000477914491e-006	0.000000e+000	1.056934e+000
4.569672352914491e-006	0.000000e+000	1.028082e+000
4.583344227914491e-006	0.000000e+000	1.000792e+000
4.597016102914491e-006	0.000000e+000	9.749262e-001
4.610687977914491e-006	0.000000e+000	9.503592e-001
4.624359852914491e-006	0.000000e+000	9.269798e-001
4.638031727914491e-006	0.000000e+000	9.046878e-001
4.651703602914492e-006	0.000000e+000	8.833930e-001
4.665375477914492e-006	0.000000e+000	8.630142e-001
4.679047352914492e-006	0.000000e+000	8.434778e-001
4.692719227914492e-006	0.000000e+000	8.247176e-001
4.706391102914492e-006	0.000000e+000	8.066732e-001
4.720062977914492e-006	0.000000e+000	7.892901e-001
4.733734852914492e-006	0.000000e+000	7.725188e-001
4.747406727914492e-006	0.000000e+000	7.563139e-001
4.761078602914493e-006	0.000000e+000	7.406346e-001
4.774750477914493e-006	0.000000e+000	7.254435e-001
4.788422352914493e-006	0.000000e+000	7.107069e-001
4.802094227914493e-006	0.000000e+000	6.963937e-001
4.815766102914493e-006	0.000000e+000	6.824761e-001
4.829437977914493e-006	0.000000e+000	6.689287e-001
4.843109852914493e-006	0.000000e+000	6.557288e-001
4.856781727914493e-006	0.000000e+000	6.428556e-001
4.870453602914493e-006	0.000000e+000	6.302910e-001
4.884125477914494e-006	0.000000e+000	6.180184e-001
4.897797352914494e-006	0.000000e+000	6.060233e-001
4.911469227914494e-006	0.000000e+000	5.942928e-001
4.931977040414494e-006	0.000000e+000	5.771688e-001
4.952484852914494e-006	0.000000e+000	5.605827e-001
4.967133290414494e-006	0.000000e+000	5.490652e-001
4.981781727914495e-006	0.000000e+000	5.377838e-001
4.996430165414495e-006	0.000000e+000	5.267384e-001
5.011078602914494e-006	0.000000e+000	5.159291e-001
5.025727040414495e-006	0.000000e+000	5.053558e-001
5.040375477914495e-006	0.000000e+000	4.950185e-001
5.055023915414495e-006	0.000000e+000	4.849172e-001
5.082367665414495e-006	0.000000e+000	4.666657e-001
5.109711415414496e-006	0.000000e+000	4.490906e-001
5.137055165414496e-006	0.000000e+000	4.321918e-001
5.164398915414496e-006	0.000000e+000	4.159694e-001
5.191742665414496e-006	0.000000e+000	4.004233e-001
5.219086415414497e-006	0.000000e+000	3.855536e-001
5.246430165414497e-006	0.000000e+000	3.713602e-001
5.295258290414497e-006	0.000000e+000	3.476443e-001
5.344086415414498e-006	0.000000e+000	3.257478e-001
5.392914540414498e-006	0.000000e+000	3.056707e-001
5.441742665414498e-006	0.000000e+000	2.874130e-001
5.490570790414499e-006	0.000000e+000	2.709747e-001
5.539398915414499e-006	0.000000e+000	2.563559e-001
5.588227040414500e-006	0.000000e+000	2.435565e-001
5.595062977914500e-006	0.000000e+000	2.418608e-001
5.646820790414500e-006	0.000000e+000	2.303032e-001
5.698578602914501e-006	0.000000e+000	2.199200e-001
5.750336415414501e-006	0.000000e+000	2.107113e-001
5.802094227914502e-006	0.000000e+000	2.026771e-001
5.853852040414502e-006	0.000000e+000	1.958174e-001
5.905609852914503e-006	0.000000e+000	1.901321e-001
5.957367665414503e-006	0.000000e+000	1.856213e-001
5.994477040414504e-006	0.000000e+000	1.826717e-001
6.031586415414504e-006	0.000000e+000	1.799802e-001
6.068695790414504e-006	0.000000e+000	1.775466e-001
6.105805165414504e-006	0.000000e+000	1.753710e-001
6.142914540414505e-006	0.000000e+000	1.734534e-001
6.180023915414505e-006	0.000000e+000	1.717938e-001
6.217133290414505e-006	0.000000e+000	1.703922e-001
6.257172352914506e-006	0.000000e+000	1.690395e-001
6.297211415414506e-006	0.000000e+000	1.678149e-001
6.337250477914506e-006	0.000000e+000	1.667184e-001
6.377289540414507e-006	0.000000e+000	1.657499e-001
6.417328602914507e-006	0.000000e+000	1.649095e-001
6.457367665414508e-006	0.000000e+000	1.641972e-001
6.497406727914508e-006	0.000000e+000	1.636129e-001
6.549164540414508e-006	0.000000e+000	1.629571e-001
6.600922352914509e-006	0.000000e+000	1.623756e-001
6.652680165414509e-006	0.000000e+000	1.618684e-001
6.704437977914510e-006	0.000000e+000	1.614355e-001
6.756195790414510e-006	0.000000e+000	1.610769e-001
6.807953602914511e-006	0.000000e+000	1.607926e-001
6.859711415414511e-006	0.000000e+000	1.605826e-001
6.996430165414512e-006	0.000000e+000	1.601200e-001
7.000000000000000e-006	0.000000e+000	1.601106e-001
