v1	V(v_1)	V(v_2)	V(vout)	I(V3)
-2.500000000000000e+000	0.000000e+000	2.500000e+000	2.500000e+000	-1.081840e-004
-2.490000000000000e+000	1.000000e-002	2.500000e+000	2.500000e+000	-1.080931e-004
-2.480000000000000e+000	2.000000e-002	2.500000e+000	2.500000e+000	-1.080010e-004
-2.470000000000001e+000	3.000000e-002	2.500000e+000	2.500000e+000	-1.079082e-004
-2.460000000000001e+000	4.000000e-002	2.500000e+000	2.500000e+000	-1.078146e-004
-2.450000000000001e+000	5.000000e-002	2.500000e+000	2.500000e+000	-1.077202e-004
-2.440000000000001e+000	6.000000e-002	2.500000e+000	2.500000e+000	-1.076249e-004
-2.430000000000002e+000	7.000000e-002	2.500000e+000	2.500000e+000	-1.075287e-004
-2.420000000000002e+000	8.000000e-002	2.500000e+000	2.500000e+000	-1.074317e-004
-2.410000000000002e+000	9.000000e-002	2.500000e+000	2.500000e+000	-1.073338e-004
-2.400000000000002e+000	1.000000e-001	2.500000e+000	2.500000e+000	-1.072350e-004
-2.390000000000002e+000	1.100000e-001	2.500000e+000	2.500000e+000	-1.071353e-004
-2.380000000000003e+000	1.200000e-001	2.500000e+000	2.500000e+000	-1.070348e-004
-2.370000000000003e+000	1.300000e-001	2.500000e+000	2.500000e+000	-1.069333e-004
-2.360000000000003e+000	1.400000e-001	2.500000e+000	2.500000e+000	-1.068309e-004
-2.350000000000003e+000	1.500000e-001	2.500000e+000	2.500000e+000	-1.067275e-004
-2.340000000000003e+000	1.600000e-001	2.500000e+000	2.500000e+000	-1.066233e-004
-2.330000000000004e+000	1.700000e-001	2.500000e+000	2.500000e+000	-1.065180e-004
-2.320000000000004e+000	1.800000e-001	2.500000e+000	2.500000e+000	-1.064119e-004
-2.310000000000004e+000	1.900000e-001	2.500000e+000	2.500000e+000	-1.063047e-004
-2.300000000000004e+000	2.000000e-001	2.500000e+000	2.500000e+000	-1.061966e-004
-2.290000000000005e+000	2.100000e-001	2.500000e+000	2.500000e+000	-1.060875e-004
-2.280000000000005e+000	2.200000e-001	2.500000e+000	2.500000e+000	-1.059775e-004
-2.270000000000005e+000	2.300000e-001	2.500000e+000	2.500000e+000	-1.058664e-004
-2.260000000000005e+000	2.400000e-001	2.500000e+000	2.500000e+000	-1.057543e-004
-2.250000000000005e+000	2.500000e-001	2.500000e+000	2.500000e+000	-1.056412e-004
-2.240000000000006e+000	2.600000e-001	2.500000e+000	2.500000e+000	-1.055270e-004
-2.230000000000006e+000	2.700000e-001	2.500000e+000	2.500000e+000	-1.054118e-004
-2.220000000000006e+000	2.800000e-001	2.500000e+000	2.500000e+000	-1.052956e-004
-2.210000000000006e+000	2.900000e-001	2.500000e+000	2.500000e+000	-1.051783e-004
-2.200000000000006e+000	3.000000e-001	2.500000e+000	2.500000e+000	-1.050599e-004
-2.190000000000007e+000	3.100000e-001	2.500000e+000	2.500000e+000	-1.049405e-004
-2.180000000000007e+000	3.200000e-001	2.500000e+000	2.500000e+000	-1.048200e-004
-2.170000000000007e+000	3.300000e-001	2.500000e+000	2.500000e+000	-1.046983e-004
-2.160000000000007e+000	3.400000e-001	2.500000e+000	2.500000e+000	-1.045756e-004
-2.150000000000008e+000	3.500000e-001	2.500000e+000	2.500000e+000	-1.044517e-004
-2.140000000000008e+000	3.600000e-001	2.500000e+000	2.500000e+000	-1.043267e-004
-2.130000000000008e+000	3.700000e-001	2.500000e+000	2.500000e+000	-1.042005e-004
-2.120000000000008e+000	3.800000e-001	2.500000e+000	2.500000e+000	-1.040732e-004
-2.110000000000008e+000	3.900000e-001	2.500000e+000	2.500000e+000	-1.039447e-004
-2.100000000000009e+000	4.000000e-001	2.500000e+000	2.500000e+000	-1.038151e-004
-2.090000000000009e+000	4.100000e-001	2.500000e+000	2.500000e+000	-1.036842e-004
-2.080000000000009e+000	4.200000e-001	2.500000e+000	2.500000e+000	-1.035522e-004
-2.070000000000009e+000	4.300000e-001	2.500000e+000	2.500000e+000	-1.034189e-004
-2.060000000000009e+000	4.400000e-001	2.500000e+000	2.500000e+000	-1.032844e-004
-2.050000000000010e+000	4.500000e-001	2.500000e+000	2.500000e+000	-1.031487e-004
-2.040000000000010e+000	4.600000e-001	2.500000e+000	2.500000e+000	-1.030117e-004
-2.030000000000010e+000	4.700000e-001	2.500000e+000	2.500000e+000	-1.028735e-004
-2.020000000000010e+000	4.800000e-001	2.500000e+000	2.500000e+000	-1.027340e-004
-2.010000000000010e+000	4.900000e-001	2.500000e+000	2.500000e+000	-1.025932e-004
-2.000000000000011e+000	5.000000e-001	2.500000e+000	2.500000e+000	-1.024511e-004
-1.990000000000011e+000	5.100000e-001	2.500000e+000	2.500000e+000	-1.023077e-004
-1.980000000000011e+000	5.200000e-001	2.500000e+000	2.500000e+000	-1.021629e-004
-1.970000000000011e+000	5.300000e-001	2.500000e+000	2.500000e+000	-1.020169e-004
-1.960000000000011e+000	5.400000e-001	2.500000e+000	2.500000e+000	-1.018695e-004
-1.950000000000011e+000	5.500000e-001	2.500000e+000	2.500000e+000	-1.017207e-004
-1.940000000000011e+000	5.600000e-001	2.500000e+000	2.500000e+000	-1.015705e-004
-1.930000000000011e+000	5.700000e-001	2.500000e+000	2.500000e+000	-1.014190e-004
-1.920000000000011e+000	5.800000e-001	2.500000e+000	2.500000e+000	-1.012661e-004
-1.910000000000011e+000	5.900000e-001	2.500000e+000	2.500000e+000	-1.011117e-004
-1.900000000000011e+000	6.000000e-001	2.500000e+000	2.500000e+000	-1.009559e-004
-1.890000000000011e+000	6.100000e-001	2.500000e+000	2.500000e+000	-1.007987e-004
-1.880000000000011e+000	6.200000e-001	2.500000e+000	2.500000e+000	-1.006400e-004
-1.870000000000011e+000	6.300000e-001	2.500000e+000	2.500000e+000	-1.004798e-004
-1.860000000000011e+000	6.400000e-001	2.500000e+000	2.500000e+000	-1.003182e-004
-1.850000000000011e+000	6.500000e-001	2.500000e+000	2.500000e+000	-1.001551e-004
-1.840000000000011e+000	6.600000e-001	2.500000e+000	2.500000e+000	-9.999044e-005
-1.830000000000011e+000	6.700000e-001	2.500000e+000	2.500000e+000	-9.982427e-005
-1.820000000000011e+000	6.800000e-001	2.500000e+000	2.500000e+000	-9.965656e-005
-1.810000000000011e+000	6.900000e-001	2.500000e+000	2.500000e+000	-9.948730e-005
-1.800000000000011e+000	7.000000e-001	2.500000e+000	2.500000e+000	-9.931646e-005
-1.790000000000011e+000	7.100000e-001	2.500000e+000	2.500000e+000	-9.914405e-005
-1.780000000000011e+000	7.200000e-001	2.500000e+000	2.500000e+000	-9.897005e-005
-1.770000000000011e+000	7.300000e-001	2.500000e+000	2.500000e+000	-9.879443e-005
-1.760000000000010e+000	7.400000e-001	2.500000e+000	2.500000e+000	-9.861719e-005
-1.750000000000010e+000	7.500000e-001	2.500000e+000	2.500000e+000	-9.843831e-005
-1.740000000000010e+000	7.600000e-001	2.500000e+000	2.500000e+000	-9.825777e-005
-1.730000000000010e+000	7.700000e-001	2.500000e+000	2.500000e+000	-9.807557e-005
-1.720000000000010e+000	7.800000e-001	2.500000e+000	2.500000e+000	-9.789169e-005
-1.710000000000010e+000	7.900000e-001	2.500000e+000	2.500000e+000	-9.770611e-005
-1.700000000000010e+000	8.000000e-001	2.500000e+000	2.500000e+000	-9.751883e-005
-1.690000000000010e+000	8.100000e-001	2.500000e+000	2.500000e+000	-9.732982e-005
-1.680000000000010e+000	8.200000e-001	2.500000e+000	2.500000e+000	-9.713908e-005
-1.670000000000010e+000	8.300000e-001	2.500000e+000	2.500000e+000	-9.694660e-005
-1.660000000000010e+000	8.400000e-001	2.500000e+000	2.500000e+000	-9.675235e-005
-1.650000000000010e+000	8.500000e-001	2.500000e+000	2.500000e+000	-9.655633e-005
-1.640000000000010e+000	8.600000e-001	2.500000e+000	2.500000e+000	-9.635853e-005
-1.630000000000010e+000	8.700000e-001	2.500000e+000	2.500000e+000	-9.615892e-005
-1.620000000000010e+000	8.800000e-001	2.500000e+000	2.500000e+000	-9.595752e-005
-1.610000000000010e+000	8.900000e-001	2.500000e+000	2.500000e+000	-9.575430e-005
-1.600000000000010e+000	9.000000e-001	2.500000e+000	2.500000e+000	-9.554925e-005
-1.590000000000010e+000	9.100000e-001	2.500000e+000	2.500000e+000	-9.534237e-005
-1.580000000000010e+000	9.200000e-001	2.500000e+000	2.500000e+000	-9.513365e-005
-1.570000000000010e+000	9.300000e-001	2.500000e+000	2.500000e+000	-9.492307e-005
-1.560000000000010e+000	9.400000e-001	2.500000e+000	2.500000e+000	-9.471065e-005
-1.550000000000010e+000	9.500000e-001	2.500000e+000	2.500000e+000	-9.449636e-005
-1.540000000000010e+000	9.600000e-001	2.500000e+000	2.500000e+000	-9.428021e-005
-1.530000000000010e+000	9.700000e-001	2.500000e+000	2.500000e+000	-9.406220e-005
-1.520000000000010e+000	9.800000e-001	2.500000e+000	2.500000e+000	-9.384233e-005
-1.510000000000010e+000	9.900000e-001	2.500000e+000	2.500000e+000	-9.362059e-005
-1.500000000000010e+000	1.000000e+000	2.500000e+000	2.500000e+000	-9.339699e-005
-1.490000000000010e+000	1.010000e+000	2.500000e+000	2.500000e+000	-9.317153e-005
-1.480000000000010e+000	1.020000e+000	2.500000e+000	2.500000e+000	-9.294422e-005
-1.470000000000010e+000	1.030000e+000	2.500000e+000	2.500000e+000	-9.271506e-005
-1.460000000000010e+000	1.040000e+000	2.500000e+000	2.500000e+000	-9.248406e-005
-1.450000000000010e+000	1.050000e+000	2.500000e+000	2.500000e+000	-9.225122e-005
-1.440000000000010e+000	1.060000e+000	2.500000e+000	2.500000e+000	-9.201653e-005
-1.430000000000010e+000	1.070000e+000	2.500000e+000	2.500000e+000	-9.178001e-005
-1.420000000000010e+000	1.080000e+000	2.500000e+000	2.500000e+000	-9.154165e-005
-1.410000000000010e+000	1.090000e+000	2.500000e+000	2.500000e+000	-9.130142e-005
-1.400000000000010e+000	1.100000e+000	2.500000e+000	2.500000e+000	-9.105930e-005
-1.390000000000010e+000	1.110000e+000	2.500000e+000	2.500000e+000	-9.081524e-005
-1.380000000000010e+000	1.120000e+000	2.500000e+000	2.500000e+000	-9.056917e-005
-1.370000000000010e+000	1.130000e+000	2.500000e+000	2.500000e+000	-9.032100e-005
-1.360000000000010e+000	1.140000e+000	2.500000e+000	2.500000e+000	-9.007059e-005
-1.350000000000010e+000	1.150000e+000	2.500000e+000	2.500000e+000	-8.981774e-005
-1.340000000000010e+000	1.160000e+000	2.500000e+000	2.500000e+000	-8.956221e-005
-1.330000000000010e+000	1.170000e+000	2.500000e+000	2.500000e+000	-8.930371e-005
-1.320000000000010e+000	1.180000e+000	2.500000e+000	2.500000e+000	-8.904182e-005
-1.310000000000010e+000	1.190000e+000	2.500000e+000	2.500000e+000	-8.877606e-005
-1.300000000000010e+000	1.200000e+000	2.500000e+000	2.500000e+000	-8.850586e-005
-1.290000000000010e+000	1.210000e+000	2.500000e+000	2.500000e+000	-8.823057e-005
-1.280000000000010e+000	1.220000e+000	2.500000e+000	2.500000e+000	-8.794943e-005
-1.270000000000010e+000	1.230000e+000	2.500000e+000	2.500000e+000	-8.766167e-005
-1.260000000000010e+000	1.240000e+000	2.500000e+000	2.500000e+000	-8.736644e-005
-1.250000000000010e+000	1.250000e+000	2.500000e+000	2.500000e+000	-8.706291e-005
-1.240000000000010e+000	1.260000e+000	2.500000e+000	2.500000e+000	-8.675029e-005
-1.230000000000010e+000	1.270000e+000	2.500000e+000	2.500000e+000	-8.642782e-005
-1.220000000000010e+000	1.280000e+000	2.500000e+000	2.500000e+000	-8.609483e-005
-1.210000000000010e+000	1.290000e+000	2.500000e+000	2.500000e+000	-8.575076e-005
-1.200000000000010e+000	1.300000e+000	2.500000e+000	2.500000e+000	-8.539510e-005
-1.190000000000010e+000	1.310000e+000	2.500000e+000	2.500000e+000	-8.502747e-005
-1.180000000000010e+000	1.320000e+000	2.500000e+000	2.500000e+000	-8.464755e-005
-1.170000000000010e+000	1.330000e+000	2.500000e+000	2.500000e+000	-8.425515e-005
-1.160000000000010e+000	1.340000e+000	2.500000e+000	2.500000e+000	-8.385009e-005
-1.150000000000010e+000	1.350000e+000	2.500000e+000	2.500000e+000	-8.343233e-005
-1.140000000000010e+000	1.360000e+000	2.500000e+000	2.500000e+000	-8.300181e-005
-1.130000000000010e+000	1.370000e+000	2.500000e+000	2.500000e+000	-8.255858e-005
-1.120000000000010e+000	1.380000e+000	2.500000e+000	2.500000e+000	-8.210269e-005
-1.110000000000010e+000	1.390000e+000	2.500000e+000	2.500000e+000	-8.163424e-005
-1.100000000000010e+000	1.400000e+000	2.500000e+000	2.500000e+000	-8.115333e-005
-1.090000000000010e+000	1.410000e+000	2.500000e+000	2.500000e+000	-8.066013e-005
-1.080000000000010e+000	1.420000e+000	2.500000e+000	2.500000e+000	-8.015477e-005
-1.070000000000010e+000	1.430000e+000	2.500000e+000	2.500000e+000	-7.963743e-005
-1.060000000000010e+000	1.440000e+000	2.500000e+000	2.500000e+000	-7.910829e-005
-1.050000000000010e+000	1.450000e+000	2.500000e+000	2.500000e+000	-7.856751e-005
-1.040000000000010e+000	1.460000e+000	2.500000e+000	2.500000e+000	-7.801530e-005
-1.030000000000010e+000	1.470000e+000	2.500000e+000	2.500000e+000	-7.745183e-005
-1.020000000000010e+000	1.480000e+000	2.500000e+000	2.500000e+000	-7.687730e-005
-1.010000000000010e+000	1.490000e+000	2.500000e+000	2.500000e+000	-7.629188e-005
-1.000000000000010e+000	1.500000e+000	2.500000e+000	2.500000e+000	-7.569577e-005
-9.900000000000098e-001	1.510000e+000	2.500000e+000	2.500000e+000	-7.508915e-005
-9.800000000000098e-001	1.520000e+000	2.500000e+000	2.500000e+000	-7.447219e-005
-9.700000000000097e-001	1.530000e+000	2.500000e+000	2.500000e+000	-7.384508e-005
-9.600000000000097e-001	1.540000e+000	2.500000e+000	2.500000e+000	-7.320796e-005
-9.500000000000097e-001	1.550000e+000	2.500000e+000	2.500000e+000	-7.256103e-005
-9.400000000000097e-001	1.560000e+000	2.500000e+000	2.500000e+000	-7.190443e-005
-9.300000000000097e-001	1.570000e+000	2.500000e+000	2.500000e+000	-7.123830e-005
-9.200000000000097e-001	1.580000e+000	2.500000e+000	2.500000e+000	-7.056282e-005
-9.100000000000097e-001	1.590000e+000	2.500000e+000	2.500000e+000	-6.987811e-005
-9.000000000000097e-001	1.600000e+000	2.500000e+000	2.500000e+000	-6.918430e-005
-8.900000000000097e-001	1.610000e+000	2.500000e+000	2.500000e+000	-6.848154e-005
-8.800000000000097e-001	1.620000e+000	2.500000e+000	2.500000e+000	-6.776994e-005
-8.700000000000097e-001	1.630000e+000	2.500000e+000	2.500000e+000	-6.704961e-005
-8.600000000000097e-001	1.640000e+000	2.500000e+000	2.500000e+000	-6.632067e-005
-8.500000000000096e-001	1.650000e+000	2.500000e+000	2.500000e+000	-6.558320e-005
-8.400000000000096e-001	1.660000e+000	2.500000e+000	2.500000e+000	-6.483732e-005
-8.300000000000096e-001	1.670000e+000	2.500000e+000	2.500000e+000	-6.408310e-005
-8.200000000000096e-001	1.680000e+000	2.500000e+000	2.500000e+000	-6.332062e-005
-8.100000000000096e-001	1.690000e+000	2.500000e+000	2.500000e+000	-6.254995e-005
-8.000000000000096e-001	1.700000e+000	2.500000e+000	2.500000e+000	-6.177114e-005
-7.900000000000096e-001	1.710000e+000	2.500000e+000	2.500000e+000	-6.098426e-005
-7.800000000000096e-001	1.720000e+000	2.500000e+000	2.500000e+000	-6.018934e-005
-7.700000000000096e-001	1.730000e+000	2.500000e+000	2.500000e+000	-5.938643e-005
-7.600000000000096e-001	1.740000e+000	2.500000e+000	2.500000e+000	-5.857555e-005
-7.500000000000096e-001	1.750000e+000	2.500000e+000	2.500000e+000	-5.775672e-005
-7.400000000000095e-001	1.760000e+000	2.500000e+000	2.500000e+000	-5.692996e-005
-7.300000000000095e-001	1.770000e+000	2.500000e+000	2.500000e+000	-5.609529e-005
-7.200000000000095e-001	1.780000e+000	2.500000e+000	2.500000e+000	-5.525273e-005
-7.100000000000095e-001	1.790000e+000	2.500000e+000	2.500000e+000	-5.440230e-005
-7.000000000000095e-001	1.800000e+000	2.500000e+000	2.500000e+000	-5.354404e-005
-6.900000000000095e-001	1.810000e+000	2.500000e+000	2.500000e+000	-5.267804e-005
-6.800000000000095e-001	1.820000e+000	2.500000e+000	2.500000e+000	-5.180442e-005
-6.700000000000095e-001	1.830000e+000	2.500000e+000	2.500000e+000	-5.092336e-005
-6.600000000000095e-001	1.840000e+000	2.500000e+000	2.500000e+000	-5.003512e-005
-6.500000000000095e-001	1.850000e+000	2.500000e+000	2.500000e+000	-4.914004e-005
-6.400000000000095e-001	1.860000e+000	2.500000e+000	2.500000e+000	-4.823849e-005
-6.300000000000094e-001	1.870000e+000	2.500000e+000	2.500000e+000	-4.733091e-005
-6.200000000000094e-001	1.880000e+000	2.500000e+000	2.500000e+000	-4.641790e-005
-6.100000000000094e-001	1.890000e+000	2.500000e+000	2.500000e+000	-4.550036e-005
-6.000000000000094e-001	1.900000e+000	2.500000e+000	2.500000e+000	-4.457953e-005
-5.900000000000094e-001	1.910000e+000	2.500000e+000	2.500000e+000	-4.365688e-005
-5.800000000000094e-001	1.920000e+000	2.500000e+000	2.500000e+000	-4.273386e-005
-5.700000000000094e-001	1.930000e+000	2.500000e+000	2.500000e+000	-4.181176e-005
-5.600000000000094e-001	1.940000e+000	2.500000e+000	2.500000e+000	-4.089157e-005
-5.500000000000094e-001	1.950000e+000	2.500000e+000	2.500000e+000	-3.997407e-005
-5.400000000000094e-001	1.960000e+000	2.500000e+000	2.500000e+000	-3.905984e-005
-5.300000000000094e-001	1.970000e+000	2.500000e+000	2.500000e+000	-3.814931e-005
-5.200000000000093e-001	1.980000e+000	2.500000e+000	2.500000e+000	-3.724281e-005
-5.100000000000093e-001	1.990000e+000	2.500000e+000	2.500000e+000	-3.634062e-005
-5.000000000000093e-001	2.000000e+000	2.500000e+000	2.500000e+000	-3.544294e-005
-4.900000000000093e-001	2.010000e+000	2.500000e+000	2.500000e+000	-3.454996e-005
-4.800000000000093e-001	2.020000e+000	2.500000e+000	2.500000e+000	-3.366187e-005
-4.700000000000093e-001	2.030000e+000	2.500000e+000	2.500000e+000	-3.277879e-005
-4.600000000000093e-001	2.040000e+000	2.500000e+000	2.500000e+000	-3.190087e-005
-4.500000000000093e-001	2.050000e+000	2.500000e+000	2.500000e+000	-3.102824e-005
-4.400000000000093e-001	2.060000e+000	2.500000e+000	2.500000e+000	-3.016104e-005
-4.300000000000093e-001	2.070000e+000	2.500000e+000	2.500000e+000	-2.929938e-005
-4.200000000000093e-001	2.080000e+000	2.500000e+000	2.500000e+000	-2.844339e-005
-4.100000000000093e-001	2.090000e+000	2.500000e+000	2.500000e+000	-2.759317e-005
-4.000000000000092e-001	2.100000e+000	2.500000e+000	2.500000e+000	-2.674886e-005
-3.900000000000092e-001	2.110000e+000	2.500000e+000	2.500000e+000	-2.591055e-005
-3.800000000000092e-001	2.120000e+000	2.500000e+000	2.500000e+000	-2.507838e-005
-3.700000000000092e-001	2.130000e+000	2.500000e+000	2.500000e+000	-2.425245e-005
-3.600000000000092e-001	2.140000e+000	2.500000e+000	2.500000e+000	-2.343288e-005
-3.500000000000092e-001	2.150000e+000	2.500000e+000	2.500000e+000	-2.261979e-005
-3.400000000000092e-001	2.160000e+000	2.500000e+000	2.500000e+000	-2.181330e-005
-3.300000000000092e-001	2.170000e+000	2.500000e+000	2.500000e+000	-2.101354e-005
-3.200000000000092e-001	2.180000e+000	2.500000e+000	2.500000e+000	-2.022063e-005
-3.100000000000092e-001	2.190000e+000	2.500000e+000	2.500000e+000	-1.943473e-005
-3.000000000000092e-001	2.200000e+000	2.500000e+000	2.500000e+000	-1.865598e-005
-2.900000000000091e-001	2.210000e+000	2.500000e+000	2.500000e+000	-1.788455e-005
-2.800000000000091e-001	2.220000e+000	2.500000e+000	2.500000e+000	-1.712063e-005
-2.700000000000091e-001	2.230000e+000	2.500000e+000	2.500000e+000	-1.636442e-005
-2.600000000000091e-001	2.240000e+000	2.500000e+000	2.500000e+000	-1.561617e-005
-2.500000000000091e-001	2.250000e+000	2.500000e+000	2.500000e+000	-1.487611e-005
-2.400000000000091e-001	2.260000e+000	2.500000e+000	2.500000e+000	-1.414452e-005
-2.300000000000091e-001	2.270000e+000	2.500000e+000	2.500000e+000	-1.342170e-005
-2.200000000000091e-001	2.280000e+000	2.500000e+000	2.500000e+000	-1.270798e-005
-2.100000000000091e-001	2.290000e+000	2.500000e+000	2.500000e+000	-1.200368e-005
-2.000000000000091e-001	2.300000e+000	2.500000e+000	2.500000e+000	-1.130903e-005
-1.900000000000091e-001	2.310000e+000	2.500000e+000	2.500000e+000	-1.062423e-005
-1.800000000000090e-001	2.320000e+000	2.500000e+000	2.500000e+000	-9.949419e-006
-1.700000000000090e-001	2.330000e+000	2.500000e+000	2.500000e+000	-9.284720e-006
-1.600000000000090e-001	2.340000e+000	2.500000e+000	2.500000e+000	-8.630240e-006
-1.500000000000090e-001	2.350000e+000	2.500000e+000	2.500000e+000	-7.986079e-006
-1.400000000000090e-001	2.360000e+000	2.500000e+000	2.500000e+000	-7.352332e-006
-1.300000000000090e-001	2.370000e+000	2.500000e+000	2.500000e+000	-6.729090e-006
-1.200000000000090e-001	2.380000e+000	2.500000e+000	2.500000e+000	-6.116442e-006
-1.100000000000090e-001	2.390000e+000	2.500000e+000	2.500000e+000	-5.514473e-006
-1.000000000000090e-001	2.400000e+000	2.500000e+000	2.500000e+000	-4.923264e-006
-9.000000000000902e-002	2.410000e+000	2.500000e+000	2.500000e+000	-4.342896e-006
-8.000000000000902e-002	2.420000e+000	2.500000e+000	2.500000e+000	-3.773446e-006
