time	V(v_1)	V(vout)
0.000000000000000e+000	0.000000e+000	1.593235e-001
1.000000000000000e-007	0.000000e+000	1.593235e-001
1.000087998998886e-007	3.333333e+000	1.609112e-001
1.000263996996659e-007	5.000000e+000	1.616471e-001
1.000328359778036e-007	5.000000e+000	1.616197e-001
1.000394585566114e-007	5.000000e+000	1.615926e-001
1.000527037142270e-007	5.000000e+000	1.615406e-001
1.000791940294583e-007	5.000000e+000	1.614448e-001
1.001321746599208e-007	5.000000e+000	1.612821e-001
1.002381359208458e-007	5.000000e+000	1.610465e-001
1.004500584426958e-007	5.000000e+000	1.607828e-001
1.006808754733356e-007	5.000000e+000	1.607114e-001
1.009526303089947e-007	5.000000e+000	1.608482e-001
1.012704193535851e-007	5.000000e+000	1.612216e-001
1.017268895719335e-007	5.000000e+000	1.620496e-001
1.023581430745879e-007	5.000000e+000	1.636568e-001
1.034703572791373e-007	5.000000e+000	1.675338e-001
1.050023881725365e-007	5.000000e+000	1.747093e-001
1.067012766464323e-007	5.000000e+000	1.853159e-001
1.089854566194632e-007	5.000000e+000	2.036230e-001
1.131692053241213e-007	5.000000e+000	2.425212e-001
1.165807933962231e-007	5.000000e+000	2.760530e-001
1.200820112549038e-007	5.000000e+000	3.109009e-001
1.239566690791493e-007	5.000000e+000	3.494173e-001
1.307926065791493e-007	5.000000e+000	4.173361e-001
1.376285440791493e-007	5.000000e+000	4.851983e-001
1.444644815791493e-007	5.000000e+000	5.529932e-001
1.581363565791494e-007	5.000000e+000	6.883671e-001
1.659488565791494e-007	5.000000e+000	7.655955e-001
1.737613565791494e-007	5.000000e+000	8.427142e-001
1.815738565791494e-007	5.000000e+000	9.197231e-001
1.893863565791494e-007	5.000000e+000	9.966222e-001
1.971988565791494e-007	5.000000e+000	1.073412e+000
2.050113565791494e-007	5.000000e+000	1.150091e+000
2.128238565791494e-007	5.000000e+000	1.226661e+000
2.196597940791494e-007	5.000000e+000	1.293554e+000
2.264957315791494e-007	5.000000e+000	1.360347e+000
2.333316690791494e-007	5.000000e+000	1.427027e+000
2.401676065791494e-007	5.000000e+000	1.493565e+000
2.470035440791494e-007	5.000000e+000	1.559921e+000
2.538394815791494e-007	5.000000e+000	1.626052e+000
2.599758210317167e-007	5.000000e+000	1.685154e+000
2.662972170498430e-007	5.000000e+000	1.745664e+000
2.709134267104864e-007	5.000000e+000	1.789365e+000
2.757960781465606e-007	5.000000e+000	1.834876e+000
2.794026557036353e-007	5.000000e+000	1.867918e+000
2.834406221943595e-007	5.000000e+000	1.904258e+000
2.891295767325378e-007	5.000000e+000	1.954535e+000
2.959655142325378e-007	5.000000e+000	2.013714e+000
3.028014517325378e-007	5.000000e+000	2.071524e+000
3.096373892325378e-007	5.000000e+000	2.127916e+000
3.164733267325378e-007	5.000000e+000	2.182906e+000
3.233092642325378e-007	5.000000e+000	2.236515e+000
3.301452017325378e-007	5.000000e+000	2.288774e+000
3.369811392325378e-007	5.000000e+000	2.339720e+000
3.438170767325378e-007	5.000000e+000	2.389396e+000
3.506530142325378e-007	5.000000e+000	2.437852e+000
3.574889517325378e-007	5.000000e+000	2.485139e+000
3.643248892325378e-007	5.000000e+000	2.531306e+000
3.779967642325379e-007	5.000000e+000	2.620442e+000
3.916686392325379e-007	5.000000e+000	2.705088e+000
4.053405142325379e-007	5.000000e+000	2.786367e+000
4.190123892325379e-007	5.000000e+000	2.864278e+000
4.326842642325379e-007	5.000000e+000	2.938821e+000
4.463561392325380e-007	5.000000e+000	3.009996e+000
4.600280142325380e-007	5.000000e+000	3.077803e+000
4.736998892325380e-007	5.000000e+000	3.142243e+000
4.990905142325378e-007	5.000000e+000	3.253689e+000
5.244811392325377e-007	5.000000e+000	3.358030e+000
5.498717642325375e-007	5.000000e+000	3.455268e+000
5.752623892325373e-007	5.000000e+000	3.545401e+000
6.006530142325372e-007	5.000000e+000	3.628431e+000
6.260436392325371e-007	5.000000e+000	3.704356e+000
6.514342642325368e-007	5.000000e+000	3.773177e+000
6.719420767325367e-007	5.000000e+000	3.826192e+000
6.924498892325365e-007	5.000000e+000	3.876053e+000
7.129577017325364e-007	5.000000e+000	3.922970e+000
7.334655142325363e-007	5.000000e+000	3.967133e+000
7.539733267325361e-007	5.000000e+000	4.008718e+000
7.676452017325360e-007	5.000000e+000	4.035090e+000
7.813170767325360e-007	5.000000e+000	4.060435e+000
7.949889517325359e-007	5.000000e+000	4.084795e+000
8.086608267325358e-007	5.000000e+000	4.108212e+000
8.223327017325357e-007	5.000000e+000	4.130724e+000
8.360045767325356e-007	5.000000e+000	4.152369e+000
8.496764517325355e-007	5.000000e+000	4.173182e+000
8.633483267325354e-007	5.000000e+000	4.193197e+000
8.770202017325353e-007	5.000000e+000	4.212446e+000
8.906920767325352e-007	5.000000e+000	4.230959e+000
9.043639517325351e-007	5.000000e+000	4.248765e+000
9.180358267325350e-007	5.000000e+000	4.265893e+000
9.385436392325349e-007	5.000000e+000	4.290370e+000
9.590514517325349e-007	5.000000e+000	4.313466e+000
9.795592642325351e-007	5.000000e+000	4.335260e+000
9.942077017325351e-007	5.000000e+000	4.350015e+000
1.008856139232535e-006	5.000000e+000	4.364230e+000
1.023504576732535e-006	5.000000e+000	4.377905e+000
1.038153014232536e-006	5.000000e+000	4.391040e+000
1.052801451732536e-006	5.000000e+000	4.403635e+000
1.067449889232536e-006	5.000000e+000	4.415691e+000
1.082098326732536e-006	5.000000e+000	4.427206e+000
1.114324889232536e-006	5.000000e+000	4.450662e+000
1.146551451732537e-006	5.000000e+000	4.472479e+000
1.178778014232537e-006	5.000000e+000	4.492655e+000
1.211004576732537e-006	5.000000e+000	4.511193e+000
1.243231139232537e-006	5.000000e+000	4.528091e+000
1.275457701732538e-006	5.000000e+000	4.543349e+000
1.307684264232538e-006	5.000000e+000	4.556967e+000
1.341863951732538e-006	5.000000e+000	4.570272e+000
1.376043639232539e-006	5.000000e+000	4.582619e+000
1.410223326732539e-006	5.000000e+000	4.594007e+000
1.444403014232539e-006	5.000000e+000	4.604437e+000
1.478582701732540e-006	5.000000e+000	4.613909e+000
1.512762389232540e-006	5.000000e+000	4.622423e+000
1.546942076732540e-006	5.000000e+000	4.629978e+000
1.578192076732540e-006	5.000000e+000	4.636392e+000
1.609442076732541e-006	5.000000e+000	4.642380e+000
1.640692076732541e-006	5.000000e+000	4.647941e+000
1.671942076732541e-006	5.000000e+000	4.653076e+000
1.703192076732542e-006	5.000000e+000	4.657785e+000
1.734442076732542e-006	5.000000e+000	4.662067e+000
1.765692076732542e-006	5.000000e+000	4.665923e+000
1.772528014232542e-006	5.000000e+000	4.666742e+000
1.811590514232542e-006	5.000000e+000	4.671058e+000
1.850653014232543e-006	5.000000e+000	4.675035e+000
1.889715514232543e-006	5.000000e+000	4.678674e+000
1.928778014232543e-006	5.000000e+000	4.681974e+000
1.967840514232544e-006	5.000000e+000	4.684936e+000
2.006903014232544e-006	5.000000e+000	4.687559e+000
2.045965514232545e-006	5.000000e+000	4.689843e+000
2.089910826732545e-006	5.000000e+000	4.692171e+000
2.133856139232545e-006	5.000000e+000	4.694300e+000
2.177801451732545e-006	5.000000e+000	4.696230e+000
2.221746764232546e-006	5.000000e+000	4.697962e+000
2.265692076732547e-006	5.000000e+000	4.699496e+000
2.309637389232547e-006	5.000000e+000	4.700832e+000
2.353582701732547e-006	5.000000e+000	4.701969e+000
2.407293639232548e-006	5.000000e+000	4.703205e+000
2.461004576732548e-006	5.000000e+000	4.704320e+000
2.514715514232549e-006	5.000000e+000	4.705313e+000
2.568426451732549e-006	5.000000e+000	4.706185e+000
2.622137389232550e-006	5.000000e+000	4.706937e+000
2.675848326732550e-006	5.000000e+000	4.707567e+000
2.729559264232551e-006	5.000000e+000	4.708076e+000
2.805731139232551e-006	5.000000e+000	4.708692e+000
2.881903014232552e-006	5.000000e+000	4.709233e+000
2.958074889232552e-006	5.000000e+000	4.709699e+000
3.034246764232553e-006	5.000000e+000	4.710089e+000
3.110418639232554e-006	5.000000e+000	4.710404e+000
3.186590514232555e-006	5.000000e+000	4.710643e+000
3.262762389232555e-006	5.000000e+000	4.710807e+000
3.341863951732556e-006	5.000000e+000	4.710964e+000
3.420965514232557e-006	5.000000e+000	4.711101e+000
3.500067076732557e-006	5.000000e+000	4.711218e+000
3.579168639232558e-006	5.000000e+000	4.711316e+000
3.658270201732559e-006	5.000000e+000	4.711395e+000
3.737371764232559e-006	5.000000e+000	4.711453e+000
3.816473326732560e-006	5.000000e+000	4.711493e+000
3.823309264232560e-006	5.000000e+000	4.711496e+000
4.097364272279015e-006	5.000000e+000	4.711602e+000
4.100000000000001e-006	2.505373e+000	4.710425e+000
4.100005677021178e-006	1.666667e+000	4.710052e+000
4.100017031063534e-006	0.000000e+000	4.709385e+000
4.100021019759142e-006	0.000000e+000	4.709432e+000
4.100024965715859e-006	0.000000e+000	4.709476e+000
4.100032857629294e-006	0.000000e+000	4.709559e+000
4.100048641456163e-006	0.000000e+000	4.709705e+000
4.100080209109902e-006	0.000000e+000	4.709941e+000
4.100143344417379e-006	0.000000e+000	4.710273e+000
4.100243846732445e-006	0.000000e+000	4.710597e+000
4.100358160417122e-006	0.000000e+000	4.710777e+000
4.100517565784122e-006	0.000000e+000	4.710841e+000
4.100726315265979e-006	0.000000e+000	4.710745e+000
4.101051652234412e-006	0.000000e+000	4.710360e+000
4.101522826724206e-006	0.000000e+000	4.709515e+000
4.102344804305959e-006	0.000000e+000	4.707684e+000
4.103204491016202e-006	0.000000e+000	4.705569e+000
4.104053298370348e-006	0.000000e+000	4.703392e+000
4.104600991066560e-006	0.000000e+000	4.701969e+000
4.105263577895709e-006	0.000000e+000	4.700232e+000
4.106044866819860e-006	0.000000e+000	4.698150e+000
4.106886154144750e-006	0.000000e+000	4.695819e+000
4.108027619175302e-006	0.000000e+000	4.692390e+000
4.109849682416860e-006	0.000000e+000	4.686166e+000
4.112186051445964e-006	0.000000e+000	4.676568e+000
4.115457261442231e-006	0.000000e+000	4.659879e+000
4.118990206754741e-006	0.000000e+000	4.637200e+000
4.123358770615913e-006	0.000000e+000	4.602990e+000
4.127022160573834e-006	0.000000e+000	4.570021e+000
4.131155990114097e-006	0.000000e+000	4.529952e+000
4.134340004261288e-006	0.000000e+000	4.498385e+000
4.138793964870352e-006	0.000000e+000	4.454048e+000
4.143628929571413e-006	0.000000e+000	4.405969e+000
4.150464867071413e-006	0.000000e+000	4.338105e+000
4.157300804571413e-006	0.000000e+000	4.270388e+000
4.164136742071413e-006	0.000000e+000	4.202848e+000
4.170972679571413e-006	0.000000e+000	4.135502e+000
4.177808617071413e-006	0.000000e+000	4.068365e+000
4.184644554571413e-006	0.000000e+000	4.001452e+000
4.198316429571413e-006	0.000000e+000	3.868362e+000
4.218824242071413e-006	0.000000e+000	3.670827e+000
4.227613304571414e-006	0.000000e+000	3.586844e+000
4.236402367071413e-006	0.000000e+000	3.503676e+000
4.245191429571413e-006	0.000000e+000	3.421323e+000
4.253980492071414e-006	0.000000e+000	3.339785e+000
4.262769554571414e-006	0.000000e+000	3.259061e+000
4.271558617071413e-006	0.000000e+000	3.179153e+000
4.280347679571414e-006	0.000000e+000	3.100059e+000
4.294019554571414e-006	0.000000e+000	2.979987e+000
4.300855492071414e-006	0.000000e+000	2.921349e+000
4.307691429571414e-006	0.000000e+000	2.863825e+000
4.314527367071414e-006	0.000000e+000	2.807574e+000
4.321363304571414e-006	0.000000e+000	2.752737e+000
4.328199242071414e-006	0.000000e+000	2.699392e+000
4.348707054571414e-006	0.000000e+000	2.548214e+000
4.369214867071415e-006	0.000000e+000	2.409410e+000
4.389722679571415e-006	0.000000e+000	2.281809e+000
4.410230492071415e-006	0.000000e+000	2.164401e+000
4.430738304571415e-006	0.000000e+000	2.056274e+000
4.451246117071415e-006	0.000000e+000	1.956587e+000
4.471753929571415e-006	0.000000e+000	1.864559e+000
4.492261742071416e-006	0.000000e+000	1.779460e+000
4.512769554571416e-006	0.000000e+000	1.700616e+000
4.533277367071416e-006	0.000000e+000	1.627407e+000
4.553785179571416e-006	0.000000e+000	1.559275e+000
4.574292992071416e-006	0.000000e+000	1.495710e+000
4.594800804571417e-006	0.000000e+000	1.436256e+000
4.615308617071417e-006	0.000000e+000	1.380505e+000
4.635816429571417e-006	0.000000e+000	1.328089e+000
4.656324242071417e-006	0.000000e+000	1.278680e+000
4.676832054571417e-006	0.000000e+000	1.231986e+000
4.690503929571417e-006	0.000000e+000	1.202239e+000
4.704175804571417e-006	0.000000e+000	1.173518e+000
4.711011742071418e-006	0.000000e+000	1.159523e+000
4.717847679571418e-006	0.000000e+000	1.145763e+000
4.724683617071418e-006	0.000000e+000	1.132229e+000
4.731519554571418e-006	0.000000e+000	1.118917e+000
4.738355492071418e-006	0.000000e+000	1.105818e+000
4.745191429571418e-006	0.000000e+000	1.092928e+000
4.752027367071418e-006	0.000000e+000	1.080240e+000
4.758863304571418e-006	0.000000e+000	1.067748e+000
4.765699242071418e-006	0.000000e+000	1.055448e+000
4.772535179571418e-006	0.000000e+000	1.043333e+000
4.779371117071418e-006	0.000000e+000	1.031399e+000
4.786207054571418e-006	0.000000e+000	1.019642e+000
4.793042992071418e-006	0.000000e+000	1.008060e+000
4.799878929571418e-006	0.000000e+000	9.966527e-001
4.806714867071418e-006	0.000000e+000	9.854217e-001
4.813550804571418e-006	0.000000e+000	9.743695e-001
4.820386742071419e-006	0.000000e+000	9.634982e-001
4.827222679571419e-006	0.000000e+000	9.528083e-001
4.834058617071419e-006	0.000000e+000	9.422989e-001
4.840894554571419e-006	0.000000e+000	9.319675e-001
4.847730492071419e-006	0.000000e+000	9.218101e-001
4.854566429571419e-006	0.000000e+000	9.118218e-001
4.861402367071419e-006	0.000000e+000	9.019970e-001
4.868238304571419e-006	0.000000e+000	8.923302e-001
4.875074242071419e-006	0.000000e+000	8.828158e-001
4.881910179571419e-006	0.000000e+000	8.734491e-001
4.888746117071419e-006	0.000000e+000	8.642255e-001
4.895582054571419e-006	0.000000e+000	8.551408e-001
4.902417992071419e-006	0.000000e+000	8.461912e-001
4.909253929571419e-006	0.000000e+000	8.373730e-001
4.916089867071419e-006	0.000000e+000	8.286827e-001
4.922925804571419e-006	0.000000e+000	8.201171e-001
4.929761742071419e-006	0.000000e+000	8.116731e-001
4.936597679571420e-006	0.000000e+000	8.033476e-001
4.943433617071420e-006	0.000000e+000	7.951376e-001
4.950269554571420e-006	0.000000e+000	7.870404e-001
4.957105492071420e-006	0.000000e+000	7.790531e-001
4.963941429571420e-006	0.000000e+000	7.711729e-001
4.970777367071420e-006	0.000000e+000	7.633969e-001
4.977613304571420e-006	0.000000e+000	7.557217e-001
4.984449242071420e-006	0.000000e+000	7.481444e-001
4.991285179571420e-006	0.000000e+000	7.406624e-001
4.998121117071420e-006	0.000000e+000	7.332737e-001
5.004957054571420e-006	0.000000e+000	7.259766e-001
5.011792992071420e-006	0.000000e+000	7.187690e-001
5.018628929571420e-006	0.000000e+000	7.116483e-001
5.025464867071420e-006	0.000000e+000	7.046126e-001
5.032300804571420e-006	0.000000e+000	6.976601e-001
5.039136742071420e-006	0.000000e+000	6.907892e-001
5.045972679571420e-006	0.000000e+000	6.839984e-001
5.052808617071421e-006	0.000000e+000	6.772860e-001
5.059644554571421e-006	0.000000e+000	6.706504e-001
5.066480492071421e-006	0.000000e+000	6.640899e-001
5.073316429571421e-006	0.000000e+000	6.576030e-001
5.080152367071421e-006	0.000000e+000	6.511883e-001
5.086988304571421e-006	0.000000e+000	6.448442e-001
5.093824242071421e-006	0.000000e+000	6.385694e-001
5.100660179571421e-006	0.000000e+000	6.323624e-001
5.107496117071421e-006	0.000000e+000	6.262219e-001
5.114332054571421e-006	0.000000e+000	6.201466e-001
5.121167992071421e-006	0.000000e+000	6.141355e-001
5.128003929571421e-006	0.000000e+000	6.081873e-001
5.134839867071421e-006	0.000000e+000	6.023009e-001
5.141675804571421e-006	0.000000e+000	5.964753e-001
5.148511742071421e-006	0.000000e+000	5.907095e-001
5.155347679571421e-006	0.000000e+000	5.850027e-001
5.162183617071422e-006	0.000000e+000	5.793538e-001
5.175855492071422e-006	0.000000e+000	5.682267e-001
5.189527367071422e-006	0.000000e+000	5.573223e-001
5.203199242071422e-006	0.000000e+000	5.466347e-001
5.216871117071422e-006	0.000000e+000	5.361592e-001
5.230542992071422e-006	0.000000e+000	5.258909e-001
5.251050804571422e-006	0.000000e+000	5.108681e-001
5.271558617071422e-006	0.000000e+000	4.962893e-001
5.287183617071423e-006	0.000000e+000	4.854832e-001
5.302808617071422e-006	0.000000e+000	4.749117e-001
5.318433617071423e-006	0.000000e+000	4.645747e-001
5.334058617071423e-006	0.000000e+000	4.544723e-001
5.349683617071424e-006	0.000000e+000	4.446043e-001
5.365308617071423e-006	0.000000e+000	4.349709e-001
5.380933617071423e-006	0.000000e+000	4.255720e-001
5.413160179571423e-006	0.000000e+000	4.068909e-001
5.445386742071424e-006	0.000000e+000	3.890793e-001
5.477613304571424e-006	0.000000e+000	3.721373e-001
5.509839867071424e-006	0.000000e+000	3.560647e-001
5.542066429571425e-006	0.000000e+000	3.408617e-001
5.574292992071425e-006	0.000000e+000	3.265281e-001
5.606519554571425e-006	0.000000e+000	3.130641e-001
5.661207054571426e-006	0.000000e+000	2.920519e-001
5.717847679571427e-006	0.000000e+000	2.731443e-001
5.774488304571427e-006	0.000000e+000	2.561345e-001
5.831128929571427e-006	0.000000e+000	2.410225e-001
5.887769554571428e-006	0.000000e+000	2.278083e-001
5.944410179571429e-006	0.000000e+000	2.164918e-001
6.001050804571429e-006	0.000000e+000	2.070731e-001
6.057691429571429e-006	0.000000e+000	1.995522e-001
6.095777367071429e-006	0.000000e+000	1.950028e-001
6.133863304571430e-006	0.000000e+000	1.908500e-001
6.171949242071430e-006	0.000000e+000	1.870939e-001
6.210035179571431e-006	0.000000e+000	1.837344e-001
6.248121117071431e-006	0.000000e+000	1.807715e-001
6.286207054571432e-006	0.000000e+000	1.782053e-001
6.324292992071432e-006	0.000000e+000	1.760358e-001
6.361402367071432e-006	0.000000e+000	1.741295e-001
6.398511742071432e-006	0.000000e+000	1.723930e-001
6.435621117071433e-006	0.000000e+000	1.708262e-001
6.472730492071433e-006	0.000000e+000	1.694293e-001
6.509839867071434e-006	0.000000e+000	1.682020e-001
6.546949242071434e-006	0.000000e+000	1.671446e-001
6.584058617071434e-006	0.000000e+000	1.662569e-001
6.627027367071435e-006	0.000000e+000	1.653450e-001
6.669996117071434e-006	0.000000e+000	1.645245e-001
6.712964867071435e-006	0.000000e+000	1.637955e-001
6.755933617071436e-006	0.000000e+000	1.631578e-001
6.798902367071436e-006	0.000000e+000	1.626115e-001
6.841871117071436e-006	0.000000e+000	1.621566e-001
6.884839867071437e-006	0.000000e+000	1.617930e-001
6.987378929571438e-006	0.000000e+000	1.610566e-001
6.994214867071438e-006	0.000000e+000	1.610161e-001
7.000000000000000e-006	0.000000e+000	1.609824e-001
