v3	V(v_1)	V(vout)	I(V3)
0.000000000000000e+000	2.500000e+000	0.000000e+000	1.366679e-005
1.000000000000000e-002	2.500000e+000	1.000000e-002	1.302674e-005
2.000000000000000e-002	2.500000e+000	2.000000e-002	1.240518e-005
3.000000000000000e-002	2.500000e+000	3.000000e-002	1.180203e-005
4.000000000000000e-002	2.500000e+000	4.000000e-002	1.121721e-005
5.000000000000000e-002	2.500000e+000	5.000000e-002	1.065063e-005
6.000000000000001e-002	2.500000e+000	6.000000e-002	1.010223e-005
7.000000000000001e-002	2.500000e+000	7.000000e-002	9.571909e-006
8.000000000000000e-002	2.500000e+000	8.000000e-002	9.059588e-006
9.000000000000000e-002	2.500000e+000	9.000000e-002	8.565176e-006
9.999999999999999e-002	2.500000e+000	1.000000e-001	8.088583e-006
1.100000000000000e-001	2.500000e+000	1.100000e-001	7.629713e-006
1.200000000000000e-001	2.500000e+000	1.200000e-001	7.188468e-006
1.300000000000000e-001	2.500000e+000	1.300000e-001	6.764746e-006
1.400000000000000e-001	2.500000e+000	1.400000e-001	6.358440e-006
1.500000000000000e-001	2.500000e+000	1.500000e-001	5.969440e-006
1.600000000000000e-001	2.500000e+000	1.600000e-001	5.597629e-006
1.700000000000000e-001	2.500000e+000	1.700000e-001	5.242885e-006
1.800000000000000e-001	2.500000e+000	1.800000e-001	4.905077e-006
1.900000000000000e-001	2.500000e+000	1.900000e-001	4.584072e-006
2.000000000000000e-001	2.500000e+000	2.000000e-001	4.279721e-006
2.100000000000001e-001	2.500000e+000	2.100000e-001	3.991873e-006
2.200000000000001e-001	2.500000e+000	2.200000e-001	3.720359e-006
2.300000000000001e-001	2.500000e+000	2.300000e-001	3.465002e-006
2.400000000000001e-001	2.500000e+000	2.400000e-001	3.225608e-006
2.500000000000001e-001	2.500000e+000	2.500000e-001	3.001964e-006
2.600000000000001e-001	2.500000e+000	2.600000e-001	2.793839e-006
2.700000000000001e-001	2.500000e+000	2.700000e-001	2.600975e-006
2.800000000000001e-001	2.500000e+000	2.800000e-001	2.423083e-006
2.900000000000001e-001	2.500000e+000	2.900000e-001	2.259836e-006
3.000000000000001e-001	2.500000e+000	3.000000e-001	2.110857e-006
3.100000000000001e-001	2.500000e+000	3.100000e-001	1.975707e-006
3.200000000000001e-001	2.500000e+000	3.200000e-001	1.853867e-006
3.300000000000001e-001	2.500000e+000	3.300000e-001	1.744720e-006
3.400000000000001e-001	2.500000e+000	3.400000e-001	1.647537e-006
3.500000000000001e-001	2.500000e+000	3.500000e-001	1.561500e-006
3.600000000000002e-001	2.500000e+000	3.600000e-001	1.485774e-006
3.700000000000002e-001	2.500000e+000	3.700000e-001	1.419624e-006
3.800000000000002e-001	2.500000e+000	3.800000e-001	1.362491e-006
3.900000000000002e-001	2.500000e+000	3.900000e-001	1.313941e-006
4.000000000000002e-001	2.500000e+000	4.000000e-001	1.273534e-006
4.100000000000002e-001	2.500000e+000	4.100000e-001	1.240690e-006
4.200000000000002e-001	2.500000e+000	4.200000e-001	1.214603e-006
4.300000000000002e-001	2.500000e+000	4.300000e-001	1.194211e-006
4.400000000000002e-001	2.500000e+000	4.400000e-001	1.178286e-006
4.500000000000002e-001	2.500000e+000	4.500000e-001	1.165633e-006
4.600000000000002e-001	2.500000e+000	4.600000e-001	1.155265e-006
4.700000000000003e-001	2.500000e+000	4.700000e-001	1.146456e-006
4.800000000000003e-001	2.500000e+000	4.800000e-001	1.138715e-006
4.900000000000003e-001	2.500000e+000	4.900000e-001	1.131716e-006
5.000000000000002e-001	2.500000e+000	5.000000e-001	1.125245e-006
5.100000000000002e-001	2.500000e+000	5.100000e-001	1.119161e-006
5.200000000000002e-001	2.500000e+000	5.200000e-001	1.113369e-006
5.300000000000003e-001	2.500000e+000	5.300000e-001	1.107801e-006
5.400000000000003e-001	2.500000e+000	5.400000e-001	1.102414e-006
5.500000000000003e-001	2.500000e+000	5.500000e-001	1.097171e-006
5.600000000000003e-001	2.500000e+000	5.600000e-001	1.092050e-006
5.700000000000003e-001	2.500000e+000	5.700000e-001	1.087032e-006
5.800000000000003e-001	2.500000e+000	5.800000e-001	1.082102e-006
5.900000000000003e-001	2.500000e+000	5.900000e-001	1.077250e-006
6.000000000000003e-001	2.500000e+000	6.000000e-001	1.072468e-006
6.100000000000003e-001	2.500000e+000	6.100000e-001	1.067746e-006
6.200000000000003e-001	2.500000e+000	6.200000e-001	1.063082e-006
6.300000000000003e-001	2.500000e+000	6.300000e-001	1.058468e-006
6.400000000000004e-001	2.500000e+000	6.400000e-001	1.053902e-006
6.500000000000004e-001	2.500000e+000	6.500000e-001	1.049381e-006
6.600000000000004e-001	2.500000e+000	6.600000e-001	1.044900e-006
6.700000000000004e-001	2.500000e+000	6.700000e-001	1.040458e-006
6.800000000000004e-001	2.500000e+000	6.800000e-001	1.036052e-006
6.900000000000004e-001	2.500000e+000	6.900000e-001	1.031680e-006
7.000000000000004e-001	2.500000e+000	7.000000e-001	1.027341e-006
7.100000000000004e-001	2.500000e+000	7.100000e-001	1.023033e-006
7.200000000000004e-001	2.500000e+000	7.200000e-001	1.018754e-006
7.300000000000004e-001	2.500000e+000	7.300000e-001	1.014503e-006
7.400000000000004e-001	2.500000e+000	7.400000e-001	1.010280e-006
7.500000000000004e-001	2.500000e+000	7.500000e-001	1.006082e-006
7.600000000000005e-001	2.500000e+000	7.600000e-001	1.001909e-006
7.700000000000005e-001	2.500000e+000	7.700000e-001	9.977593e-007
7.800000000000005e-001	2.500000e+000	7.800000e-001	9.936330e-007
7.900000000000005e-001	2.500000e+000	7.900000e-001	9.895286e-007
8.000000000000005e-001	2.500000e+000	8.000000e-001	9.854456e-007
8.100000000000005e-001	2.500000e+000	8.100000e-001	9.813831e-007
8.200000000000005e-001	2.500000e+000	8.200000e-001	9.773405e-007
8.300000000000005e-001	2.500000e+000	8.300000e-001	9.733170e-007
8.400000000000005e-001	2.500000e+000	8.400000e-001	9.693121e-007
8.500000000000005e-001	2.500000e+000	8.500000e-001	9.653252e-007
8.600000000000005e-001	2.500000e+000	8.600000e-001	9.613556e-007
8.700000000000006e-001	2.500000e+000	8.700000e-001	9.574029e-007
8.800000000000006e-001	2.500000e+000	8.800000e-001	9.534666e-007
8.900000000000006e-001	2.500000e+000	8.900000e-001	9.495461e-007
9.000000000000006e-001	2.500000e+000	9.000000e-001	9.456409e-007
9.100000000000006e-001	2.500000e+000	9.100000e-001	9.417507e-007
9.200000000000006e-001	2.500000e+000	9.200000e-001	9.378750e-007
9.300000000000006e-001	2.500000e+000	9.300000e-001	9.340134e-007
9.400000000000006e-001	2.500000e+000	9.400000e-001	9.301655e-007
9.500000000000006e-001	2.500000e+000	9.500000e-001	9.263309e-007
9.600000000000006e-001	2.500000e+000	9.600000e-001	9.225092e-007
9.700000000000006e-001	2.500000e+000	9.700000e-001	9.187000e-007
9.800000000000007e-001	2.500000e+000	9.800000e-001	9.149031e-007
9.900000000000007e-001	2.500000e+000	9.900000e-001	9.111180e-007
1.000000000000001e+000	2.500000e+000	1.000000e+000	9.073445e-007
1.010000000000001e+000	2.500000e+000	1.010000e+000	9.035824e-007
1.020000000000001e+000	2.500000e+000	1.020000e+000	8.998310e-007
1.030000000000001e+000	2.500000e+000	1.030000e+000	8.960905e-007
1.040000000000001e+000	2.500000e+000	1.040000e+000	8.923602e-007
1.050000000000001e+000	2.500000e+000	1.050000e+000	8.886401e-007
1.060000000000001e+000	2.500000e+000	1.060000e+000	8.849298e-007
1.070000000000001e+000	2.500000e+000	1.070000e+000	8.812291e-007
1.080000000000001e+000	2.500000e+000	1.080000e+000	8.775377e-007
1.090000000000001e+000	2.500000e+000	1.090000e+000	8.738554e-007
1.100000000000001e+000	2.500000e+000	1.100000e+000	8.701820e-007
1.110000000000001e+000	2.500000e+000	1.110000e+000	8.665171e-007
1.120000000000001e+000	2.500000e+000	1.120000e+000	8.628606e-007
1.130000000000001e+000	2.500000e+000	1.130000e+000	8.592124e-007
1.140000000000001e+000	2.500000e+000	1.140000e+000	8.555721e-007
1.150000000000001e+000	2.500000e+000	1.150000e+000	8.519395e-007
1.160000000000001e+000	2.500000e+000	1.160000e+000	8.483145e-007
1.170000000000001e+000	2.500000e+000	1.170000e+000	8.446968e-007
1.180000000000001e+000	2.500000e+000	1.180000e+000	8.410864e-007
1.190000000000001e+000	2.500000e+000	1.190000e+000	8.374828e-007
1.200000000000001e+000	2.500000e+000	1.200000e+000	8.338861e-007
1.210000000000001e+000	2.500000e+000	1.210000e+000	8.302960e-007
1.220000000000001e+000	2.500000e+000	1.220000e+000	8.267123e-007
1.230000000000001e+000	2.500000e+000	1.230000e+000	8.231349e-007
1.240000000000001e+000	2.500000e+000	1.240000e+000	8.195636e-007
1.250000000000001e+000	2.500000e+000	1.250000e+000	8.159982e-007
1.260000000000001e+000	2.500000e+000	1.260000e+000	8.124387e-007
1.270000000000001e+000	2.500000e+000	1.270000e+000	8.088846e-007
1.280000000000001e+000	2.500000e+000	1.280000e+000	8.053361e-007
1.290000000000001e+000	2.500000e+000	1.290000e+000	8.017930e-007
1.300000000000001e+000	2.500000e+000	1.300000e+000	7.982549e-007
1.310000000000001e+000	2.500000e+000	1.310000e+000	7.947219e-007
1.320000000000001e+000	2.500000e+000	1.320000e+000	7.911938e-007
1.330000000000001e+000	2.500000e+000	1.330000e+000	7.876704e-007
1.340000000000001e+000	2.500000e+000	1.340000e+000	7.841517e-007
1.350000000000001e+000	2.500000e+000	1.350000e+000	7.806374e-007
1.360000000000001e+000	2.500000e+000	1.360000e+000	7.771274e-007
1.370000000000001e+000	2.500000e+000	1.370000e+000	7.736217e-007
1.380000000000001e+000	2.500000e+000	1.380000e+000	7.701201e-007
1.390000000000001e+000	2.500000e+000	1.390000e+000	7.666224e-007
1.400000000000001e+000	2.500000e+000	1.400000e+000	7.631286e-007
1.410000000000001e+000	2.500000e+000	1.410000e+000	7.596385e-007
1.420000000000001e+000	2.500000e+000	1.420000e+000	7.561520e-007
1.430000000000001e+000	2.500000e+000	1.430000e+000	7.526691e-007
1.440000000000001e+000	2.500000e+000	1.440000e+000	7.491894e-007
1.450000000000001e+000	2.500000e+000	1.450000e+000	7.457131e-007
1.460000000000001e+000	2.500000e+000	1.460000e+000	7.422399e-007
1.470000000000001e+000	2.500000e+000	1.470000e+000	7.387698e-007
1.480000000000001e+000	2.500000e+000	1.480000e+000	7.353026e-007
1.490000000000001e+000	2.500000e+000	1.490000e+000	7.318383e-007
1.500000000000001e+000	2.500000e+000	1.500000e+000	7.283766e-007
1.510000000000001e+000	2.500000e+000	1.510000e+000	7.249176e-007
1.520000000000001e+000	2.500000e+000	1.520000e+000	7.214612e-007
1.530000000000001e+000	2.500000e+000	1.530000e+000	7.180072e-007
1.540000000000001e+000	2.500000e+000	1.540000e+000	7.145555e-007
1.550000000000001e+000	2.500000e+000	1.550000e+000	7.111061e-007
1.560000000000001e+000	2.500000e+000	1.560000e+000	7.076588e-007
1.570000000000001e+000	2.500000e+000	1.570000e+000	7.042136e-007
1.580000000000001e+000	2.500000e+000	1.580000e+000	7.007703e-007
1.590000000000001e+000	2.500000e+000	1.590000e+000	6.973289e-007
1.600000000000001e+000	2.500000e+000	1.600000e+000	6.938893e-007
1.610000000000001e+000	2.500000e+000	1.610000e+000	6.904513e-007
1.620000000000001e+000	2.500000e+000	1.620000e+000	6.870150e-007
1.630000000000001e+000	2.500000e+000	1.630000e+000	6.835802e-007
1.640000000000001e+000	2.500000e+000	1.640000e+000	6.801468e-007
1.650000000000001e+000	2.500000e+000	1.650000e+000	6.767147e-007
1.660000000000001e+000	2.500000e+000	1.660000e+000	6.732839e-007
1.670000000000001e+000	2.500000e+000	1.670000e+000	6.698543e-007
1.680000000000001e+000	2.500000e+000	1.680000e+000	6.664258e-007
1.690000000000001e+000	2.500000e+000	1.690000e+000	6.629983e-007
1.700000000000001e+000	2.500000e+000	1.700000e+000	6.595716e-007
1.710000000000001e+000	2.500000e+000	1.710000e+000	6.561459e-007
1.720000000000001e+000	2.500000e+000	1.720000e+000	6.527210e-007
1.730000000000001e+000	2.500000e+000	1.730000e+000	6.492967e-007
1.740000000000001e+000	2.500000e+000	1.740000e+000	6.458731e-007
1.750000000000001e+000	2.500000e+000	1.750000e+000	6.424499e-007
1.760000000000001e+000	2.500000e+000	1.760000e+000	6.390273e-007
1.770000000000001e+000	2.500000e+000	1.770000e+000	6.356050e-007
1.780000000000001e+000	2.500000e+000	1.780000e+000	6.321831e-007
1.790000000000001e+000	2.500000e+000	1.790000e+000	6.287613e-007
1.800000000000001e+000	2.500000e+000	1.800000e+000	6.253398e-007
1.810000000000001e+000	2.500000e+000	1.810000e+000	6.219183e-007
1.820000000000001e+000	2.500000e+000	1.820000e+000	6.184969e-007
1.830000000000001e+000	2.500000e+000	1.830000e+000	6.150754e-007
1.840000000000001e+000	2.500000e+000	1.840000e+000	6.116537e-007
1.850000000000001e+000	2.500000e+000	1.850000e+000	6.082319e-007
1.860000000000001e+000	2.500000e+000	1.860000e+000	6.048098e-007
1.870000000000001e+000	2.500000e+000	1.870000e+000	6.013873e-007
1.880000000000001e+000	2.500000e+000	1.880000e+000	5.979645e-007
1.890000000000002e+000	2.500000e+000	1.890000e+000	5.945411e-007
1.900000000000002e+000	2.500000e+000	1.900000e+000	5.911173e-007
1.910000000000002e+000	2.500000e+000	1.910000e+000	5.876927e-007
1.920000000000002e+000	2.500000e+000	1.920000e+000	5.842675e-007
1.930000000000002e+000	2.500000e+000	1.930000e+000	5.808416e-007
1.940000000000002e+000	2.500000e+000	1.940000e+000	5.774148e-007
1.950000000000002e+000	2.500000e+000	1.950000e+000	5.739871e-007
1.960000000000002e+000	2.500000e+000	1.960000e+000	5.705584e-007
1.970000000000002e+000	2.500000e+000	1.970000e+000	5.671287e-007
1.980000000000002e+000	2.500000e+000	1.980000e+000	5.636979e-007
1.990000000000002e+000	2.500000e+000	1.990000e+000	5.602659e-007
2.000000000000001e+000	2.500000e+000	2.000000e+000	5.568327e-007
2.010000000000001e+000	2.500000e+000	2.010000e+000	5.533982e-007
2.020000000000001e+000	2.500000e+000	2.020000e+000	5.499623e-007
2.030000000000001e+000	2.500000e+000	2.030000e+000	5.465250e-007
2.040000000000001e+000	2.500000e+000	2.040000e+000	5.430861e-007
2.050000000000000e+000	2.500000e+000	2.050000e+000	5.396457e-007
2.060000000000000e+000	2.500000e+000	2.060000e+000	5.362036e-007
2.070000000000000e+000	2.500000e+000	2.070000e+000	5.327598e-007
2.080000000000000e+000	2.500000e+000	2.080000e+000	5.293143e-007
2.089999999999999e+000	2.500000e+000	2.090000e+000	5.258669e-007
2.099999999999999e+000	2.500000e+000	2.100000e+000	5.224176e-007
2.109999999999999e+000	2.500000e+000	2.110000e+000	5.189663e-007
2.119999999999999e+000	2.500000e+000	2.120000e+000	5.155129e-007
2.129999999999999e+000	2.500000e+000	2.130000e+000	5.120574e-007
2.139999999999998e+000	2.500000e+000	2.140000e+000	5.085997e-007
2.149999999999998e+000	2.500000e+000	2.150000e+000	5.051397e-007
2.159999999999998e+000	2.500000e+000	2.160000e+000	5.016774e-007
2.169999999999998e+000	2.500000e+000	2.170000e+000	4.982128e-007
2.179999999999998e+000	2.500000e+000	2.180000e+000	4.947457e-007
2.189999999999997e+000	2.500000e+000	2.190000e+000	4.912760e-007
2.199999999999997e+000	2.500000e+000	2.200000e+000	4.878037e-007
2.209999999999997e+000	2.500000e+000	2.210000e+000	4.843287e-007
2.219999999999997e+000	2.500000e+000	2.220000e+000	4.808510e-007
2.229999999999996e+000	2.500000e+000	2.230000e+000	4.773705e-007
2.239999999999996e+000	2.500000e+000	2.240000e+000	4.738870e-007
2.249999999999996e+000	2.500000e+000	2.250000e+000	4.704006e-007
2.259999999999996e+000	2.500000e+000	2.260000e+000	4.669112e-007
2.269999999999996e+000	2.500000e+000	2.270000e+000	4.634186e-007
2.279999999999995e+000	2.500000e+000	2.280000e+000	4.599229e-007
2.289999999999995e+000	2.500000e+000	2.290000e+000	4.564239e-007
2.299999999999995e+000	2.500000e+000	2.300000e+000	4.529215e-007
2.309999999999995e+000	2.500000e+000	2.310000e+000	4.494158e-007
2.319999999999995e+000	2.500000e+000	2.320000e+000	4.459066e-007
2.329999999999994e+000	2.500000e+000	2.330000e+000	4.423937e-007
2.339999999999994e+000	2.500000e+000	2.340000e+000	4.388773e-007
2.349999999999994e+000	2.500000e+000	2.350000e+000	4.353572e-007
2.359999999999994e+000	2.500000e+000	2.360000e+000	4.318332e-007
2.369999999999993e+000	2.500000e+000	2.370000e+000	4.283054e-007
2.379999999999993e+000	2.500000e+000	2.380000e+000	4.247736e-007
2.389999999999993e+000	2.500000e+000	2.390000e+000	4.212378e-007
2.399999999999993e+000	2.500000e+000	2.400000e+000	4.176979e-007
2.409999999999993e+000	2.500000e+000	2.410000e+000	4.141538e-007
2.419999999999992e+000	2.500000e+000	2.420000e+000	4.106054e-007
2.429999999999992e+000	2.500000e+000	2.430000e+000	4.070527e-007
2.439999999999992e+000	2.500000e+000	2.440000e+000	4.034954e-007
2.449999999999992e+000	2.500000e+000	2.450000e+000	3.999337e-007
2.459999999999992e+000	2.500000e+000	2.460000e+000	3.963674e-007
2.469999999999991e+000	2.500000e+000	2.470000e+000	3.927964e-007
2.479999999999991e+000	2.500000e+000	2.480000e+000	3.892205e-007
2.489999999999991e+000	2.500000e+000	2.490000e+000	3.856398e-007
2.499999999999991e+000	2.500000e+000	2.500000e+000	3.820541e-007
2.509999999999991e+000	2.500000e+000	2.510000e+000	3.784634e-007
2.519999999999990e+000	2.500000e+000	2.520000e+000	3.748675e-007
2.529999999999990e+000	2.500000e+000	2.530000e+000	3.712664e-007
2.539999999999990e+000	2.500000e+000	2.540000e+000	3.676599e-007
2.549999999999990e+000	2.500000e+000	2.550000e+000	3.640480e-007
2.559999999999989e+000	2.500000e+000	2.560000e+000	3.604307e-007
2.569999999999989e+000	2.500000e+000	2.570000e+000	3.568076e-007
2.579999999999989e+000	2.500000e+000	2.580000e+000	3.531789e-007
2.589999999999989e+000	2.500000e+000	2.590000e+000	3.495444e-007
2.599999999999989e+000	2.500000e+000	2.600000e+000	3.459039e-007
2.609999999999988e+000	2.500000e+000	2.610000e+000	3.422575e-007
2.619999999999988e+000	2.500000e+000	2.620000e+000	3.386049e-007
2.629999999999988e+000	2.500000e+000	2.630000e+000	3.349461e-007
2.639999999999988e+000	2.500000e+000	2.640000e+000	3.312810e-007
2.649999999999988e+000	2.500000e+000	2.650000e+000	3.276095e-007
2.659999999999987e+000	2.500000e+000	2.660000e+000	3.239315e-007
2.669999999999987e+000	2.500000e+000	2.670000e+000	3.202468e-007
2.679999999999987e+000	2.500000e+000	2.680000e+000	3.165553e-007
2.689999999999987e+000	2.500000e+000	2.690000e+000	3.128571e-007
2.699999999999986e+000	2.500000e+000	2.700000e+000	3.091518e-007
2.709999999999986e+000	2.500000e+000	2.710000e+000	3.054395e-007
2.719999999999986e+000	2.500000e+000	2.720000e+000	3.017200e-007
2.729999999999986e+000	2.500000e+000	2.730000e+000	2.979932e-007
2.739999999999986e+000	2.500000e+000	2.740000e+000	2.942589e-007
2.749999999999985e+000	2.500000e+000	2.750000e+000	2.905172e-007
2.759999999999985e+000	2.500000e+000	2.760000e+000	2.867677e-007
2.769999999999985e+000	2.500000e+000	2.770000e+000	2.830106e-007
2.779999999999985e+000	2.500000e+000	2.780000e+000	2.792455e-007
2.789999999999985e+000	2.500000e+000	2.790000e+000	2.754724e-007
2.799999999999984e+000	2.500000e+000	2.800000e+000	2.716911e-007
2.809999999999984e+000	2.500000e+000	2.810000e+000	2.679016e-007
2.819999999999984e+000	2.500000e+000	2.820000e+000	2.641037e-007
2.829999999999984e+000	2.500000e+000	2.830000e+000	2.602972e-007
2.839999999999983e+000	2.500000e+000	2.840000e+000	2.564821e-007
2.849999999999983e+000	2.500000e+000	2.850000e+000	2.526583e-007
2.859999999999983e+000	2.500000e+000	2.860000e+000	2.488255e-007
2.869999999999983e+000	2.500000e+000	2.870000e+000	2.449837e-007
2.879999999999983e+000	2.500000e+000	2.880000e+000	2.411326e-007
2.889999999999982e+000	2.500000e+000	2.890000e+000	2.372723e-007
2.899999999999982e+000	2.500000e+000	2.900000e+000	2.334024e-007
2.909999999999982e+000	2.500000e+000	2.910000e+000	2.295230e-007
2.919999999999982e+000	2.500000e+000	2.920000e+000	2.256339e-007
2.929999999999982e+000	2.500000e+000	2.930000e+000	2.217348e-007
2.939999999999981e+000	2.500000e+000	2.940000e+000	2.178257e-007
2.949999999999981e+000	2.500000e+000	2.950000e+000	2.139064e-007
2.959999999999981e+000	2.500000e+000	2.960000e+000	2.099768e-007
2.969999999999981e+000	2.500000e+000	2.970000e+000	2.060368e-007
2.979999999999980e+000	2.500000e+000	2.980000e+000	2.020861e-007
2.989999999999980e+000	2.500000e+000	2.990000e+000	1.981246e-007
2.999999999999980e+000	2.500000e+000	3.000000e+000	1.941521e-007
3.009999999999980e+000	2.500000e+000	3.010000e+000	1.901686e-007
