v1	V(v_1)	V(v_2)	V(vout)
Step Information: V2=1  (Run: 1/4)
0.000000000000000e+000	0.000000e+000	1.000000e+000	1.402410e-002
1.000000000000000e-002	1.000000e-002	1.000000e+000	1.461261e-002
2.000000000000000e-002	2.000000e-002	1.000000e+000	1.520771e-002
3.000000000000000e-002	3.000000e-002	1.000000e+000	1.582791e-002
4.000000000000000e-002	4.000000e-002	1.000000e+000	1.646275e-002
5.000000000000000e-002	5.000000e-002	1.000000e+000	1.711717e-002
6.000000000000001e-002	6.000000e-002	1.000000e+000	1.778912e-002
7.000000000000001e-002	7.000000e-002	1.000000e+000	1.847988e-002
8.000000000000000e-002	8.000000e-002	1.000000e+000	1.918920e-002
9.000000000000000e-002	9.000000e-002	1.000000e+000	1.991748e-002
9.999999999999999e-002	1.000000e-001	1.000000e+000	2.066484e-002
1.100000000000000e-001	1.100000e-001	1.000000e+000	2.143146e-002
1.200000000000000e-001	1.200000e-001	1.000000e+000	2.221747e-002
1.300000000000000e-001	1.300000e-001	1.000000e+000	2.302300e-002
1.400000000000000e-001	1.400000e-001	1.000000e+000	2.384814e-002
1.500000000000000e-001	1.500000e-001	1.000000e+000	2.469296e-002
1.600000000000000e-001	1.600000e-001	1.000000e+000	2.555750e-002
1.700000000000000e-001	1.700000e-001	1.000000e+000	2.644176e-002
1.800000000000000e-001	1.800000e-001	1.000000e+000	2.734571e-002
1.900000000000000e-001	1.900000e-001	1.000000e+000	2.826927e-002
2.000000000000000e-001	2.000000e-001	1.000000e+000	2.921234e-002
2.100000000000001e-001	2.100000e-001	1.000000e+000	3.017478e-002
2.200000000000001e-001	2.200000e-001	1.000000e+000	3.115641e-002
2.300000000000001e-001	2.300000e-001	1.000000e+000	3.215706e-002
2.400000000000001e-001	2.400000e-001	1.000000e+000	3.317655e-002
2.500000000000001e-001	2.500000e-001	1.000000e+000	3.421470e-002
2.600000000000001e-001	2.600000e-001	1.000000e+000	3.527138e-002
2.700000000000001e-001	2.700000e-001	1.000000e+000	3.634645e-002
2.800000000000001e-001	2.800000e-001	1.000000e+000	3.743986e-002
2.900000000000001e-001	2.900000e-001	1.000000e+000	3.855155e-002
3.000000000000001e-001	3.000000e-001	1.000000e+000	3.968151e-002
3.100000000000001e-001	3.100000e-001	1.000000e+000	4.082979e-002
3.200000000000001e-001	3.200000e-001	1.000000e+000	4.199645e-002
3.300000000000001e-001	3.300000e-001	1.000000e+000	4.318156e-002
3.400000000000001e-001	3.400000e-001	1.000000e+000	4.438528e-002
3.500000000000001e-001	3.500000e-001	1.000000e+000	4.560772e-002
3.600000000000002e-001	3.600000e-001	1.000000e+000	4.684908e-002
3.700000000000002e-001	3.700000e-001	1.000000e+000	4.810953e-002
3.800000000000002e-001	3.800000e-001	1.000000e+000	4.938929e-002
3.900000000000002e-001	3.900000e-001	1.000000e+000	5.068860e-002
4.000000000000002e-001	4.000000e-001	1.000000e+000	5.200771e-002
4.100000000000002e-001	4.100000e-001	1.000000e+000	5.334691e-002
4.200000000000002e-001	4.200000e-001	1.000000e+000	5.470649e-002
4.300000000000002e-001	4.300000e-001	1.000000e+000	5.608679e-002
4.400000000000002e-001	4.400000e-001	1.000000e+000	5.748818e-002
4.500000000000002e-001	4.500000e-001	1.000000e+000	5.891103e-002
4.600000000000002e-001	4.600000e-001	1.000000e+000	6.035580e-002
4.700000000000003e-001	4.700000e-001	1.000000e+000	6.182294e-002
4.800000000000003e-001	4.800000e-001	1.000000e+000	6.331301e-002
4.900000000000003e-001	4.900000e-001	1.000000e+000	6.482658e-002
5.000000000000002e-001	5.000000e-001	1.000000e+000	6.636433e-002
5.100000000000002e-001	5.100000e-001	1.000000e+000	6.792705e-002
5.200000000000002e-001	5.200000e-001	1.000000e+000	6.951560e-002
5.300000000000003e-001	5.300000e-001	1.000000e+000	7.113102e-002
5.400000000000003e-001	5.400000e-001	1.000000e+000	7.277451e-002
5.500000000000003e-001	5.500000e-001	1.000000e+000	7.444750e-002
5.600000000000003e-001	5.600000e-001	1.000000e+000	7.615163e-002
5.700000000000003e-001	5.700000e-001	1.000000e+000	7.788891e-002
5.800000000000003e-001	5.800000e-001	1.000000e+000	7.966166e-002
5.900000000000003e-001	5.900000e-001	1.000000e+000	8.147265e-002
6.000000000000003e-001	6.000000e-001	1.000000e+000	8.332511e-002
6.100000000000003e-001	6.100000e-001	1.000000e+000	8.522282e-002
6.200000000000003e-001	6.200000e-001	1.000000e+000	8.717011e-002
6.300000000000003e-001	6.300000e-001	1.000000e+000	8.917192e-002
6.400000000000004e-001	6.400000e-001	1.000000e+000	9.123379e-002
6.500000000000004e-001	6.500000e-001	1.000000e+000	9.336179e-002
6.600000000000004e-001	6.600000e-001	1.000000e+000	9.556256e-002
6.700000000000004e-001	6.700000e-001	1.000000e+000	9.784317e-002
6.800000000000004e-001	6.800000e-001	1.000000e+000	1.002111e-001
6.900000000000004e-001	6.900000e-001	1.000000e+000	1.026742e-001
7.000000000000004e-001	7.000000e-001	1.000000e+000	1.052406e-001
7.100000000000004e-001	7.100000e-001	1.000000e+000	1.079189e-001
7.200000000000004e-001	7.200000e-001	1.000000e+000	1.107179e-001
7.300000000000004e-001	7.300000e-001	1.000000e+000	1.136469e-001
7.400000000000004e-001	7.400000e-001	1.000000e+000	1.167158e-001
7.500000000000004e-001	7.500000e-001	1.000000e+000	1.199352e-001
7.600000000000005e-001	7.600000e-001	1.000000e+000	1.233167e-001
7.700000000000005e-001	7.700000e-001	1.000000e+000	1.268727e-001
7.800000000000005e-001	7.800000e-001	1.000000e+000	1.306173e-001
7.900000000000005e-001	7.900000e-001	1.000000e+000	1.345662e-001
8.000000000000005e-001	8.000000e-001	1.000000e+000	1.387373e-001
8.100000000000005e-001	8.100000e-001	1.000000e+000	1.431512e-001
8.200000000000005e-001	8.200000e-001	1.000000e+000	1.478319e-001
8.300000000000005e-001	8.300000e-001	1.000000e+000	1.528076e-001
8.400000000000005e-001	8.400000e-001	1.000000e+000	1.581119e-001
8.500000000000005e-001	8.500000e-001	1.000000e+000	1.637858e-001
8.600000000000005e-001	8.600000e-001	1.000000e+000	1.698790e-001
8.700000000000006e-001	8.700000e-001	1.000000e+000	1.764543e-001
8.800000000000006e-001	8.800000e-001	1.000000e+000	1.835912e-001
8.900000000000006e-001	8.900000e-001	1.000000e+000	1.913941e-001
9.000000000000006e-001	9.000000e-001	1.000000e+000	2.000032e-001
9.100000000000006e-001	9.100000e-001	1.000000e+000	2.096143e-001
9.200000000000006e-001	9.200000e-001	1.000000e+000	2.205144e-001
9.300000000000006e-001	9.300000e-001	1.000000e+000	2.331510e-001
9.400000000000006e-001	9.400000e-001	1.000000e+000	2.482865e-001
9.500000000000006e-001	9.500000e-001	1.000000e+000	2.674004e-001
9.600000000000006e-001	9.600000e-001	1.000000e+000	2.944500e-001
9.700000000000006e-001	9.700000e-001	1.000000e+000	3.437788e-001
9.800000000000007e-001	9.800000e-001	1.000000e+000	1.029032e+000
9.900000000000007e-001	9.900000e-001	1.000000e+000	2.409241e+000
1.000000000000001e+000	1.000000e+000	1.000000e+000	3.608930e+000
1.010000000000001e+000	1.010000e+000	1.000000e+000	4.252824e+000
1.020000000000001e+000	1.020000e+000	1.000000e+000	4.353343e+000
1.030000000000001e+000	1.030000e+000	1.000000e+000	4.403837e+000
1.040000000000001e+000	1.040000e+000	1.000000e+000	4.439257e+000
1.050000000000001e+000	1.050000e+000	1.000000e+000	4.467123e+000
1.060000000000001e+000	1.060000e+000	1.000000e+000	4.490066e+000
1.070000000000001e+000	1.070000e+000	1.000000e+000	4.509708e+000
1.080000000000001e+000	1.080000e+000	1.000000e+000	4.526896e+000
1.090000000000001e+000	1.090000e+000	1.000000e+000	4.542170e+000
1.100000000000001e+000	1.100000e+000	1.000000e+000	4.555908e+000
1.110000000000001e+000	1.110000e+000	1.000000e+000	4.568382e+000
1.120000000000001e+000	1.120000e+000	1.000000e+000	4.579797e+000
1.130000000000001e+000	1.130000e+000	1.000000e+000	4.590308e+000
1.140000000000001e+000	1.140000e+000	1.000000e+000	4.600038e+000
1.150000000000001e+000	1.150000e+000	1.000000e+000	4.609087e+000
1.160000000000001e+000	1.160000e+000	1.000000e+000	4.617537e+000
1.170000000000001e+000	1.170000e+000	1.000000e+000	4.625453e+000
1.180000000000001e+000	1.180000e+000	1.000000e+000	4.632891e+000
1.190000000000001e+000	1.190000e+000	1.000000e+000	4.639901e+000
1.200000000000001e+000	1.200000e+000	1.000000e+000	4.646523e+000
1.210000000000001e+000	1.210000e+000	1.000000e+000	4.652791e+000
1.220000000000001e+000	1.220000e+000	1.000000e+000	4.658737e+000
1.230000000000001e+000	1.230000e+000	1.000000e+000	4.664388e+000
1.240000000000001e+000	1.240000e+000	1.000000e+000	4.669767e+000
1.250000000000001e+000	1.250000e+000	1.000000e+000	4.674896e+000
1.260000000000001e+000	1.260000e+000	1.000000e+000	4.679793e+000
1.270000000000001e+000	1.270000e+000	1.000000e+000	4.684474e+000
1.280000000000001e+000	1.280000e+000	1.000000e+000	4.688955e+000
1.290000000000001e+000	1.290000e+000	1.000000e+000	4.693250e+000
1.300000000000001e+000	1.300000e+000	1.000000e+000	4.697370e+000
1.310000000000001e+000	1.310000e+000	1.000000e+000	4.701327e+000
1.320000000000001e+000	1.320000e+000	1.000000e+000	4.705131e+000
1.330000000000001e+000	1.330000e+000	1.000000e+000	4.708791e+000
1.340000000000001e+000	1.340000e+000	1.000000e+000	4.712316e+000
1.350000000000001e+000	1.350000e+000	1.000000e+000	4.715712e+000
1.360000000000001e+000	1.360000e+000	1.000000e+000	4.718988e+000
1.370000000000001e+000	1.370000e+000	1.000000e+000	4.722151e+000
1.380000000000001e+000	1.380000e+000	1.000000e+000	4.725206e+000
1.390000000000001e+000	1.390000e+000	1.000000e+000	4.728158e+000
1.400000000000001e+000	1.400000e+000	1.000000e+000	4.731014e+000
1.410000000000001e+000	1.410000e+000	1.000000e+000	4.733778e+000
1.420000000000001e+000	1.420000e+000	1.000000e+000	4.736454e+000
1.430000000000001e+000	1.430000e+000	1.000000e+000	4.739048e+000
1.440000000000001e+000	1.440000e+000	1.000000e+000	4.741562e+000
1.450000000000001e+000	1.450000e+000	1.000000e+000	4.744000e+000
1.460000000000001e+000	1.460000e+000	1.000000e+000	4.746366e+000
1.470000000000001e+000	1.470000e+000	1.000000e+000	4.748663e+000
1.480000000000001e+000	1.480000e+000	1.000000e+000	4.750895e+000
1.490000000000001e+000	1.490000e+000	1.000000e+000	4.753064e+000
1.500000000000001e+000	1.500000e+000	1.000000e+000	4.755172e+000
1.510000000000001e+000	1.510000e+000	1.000000e+000	4.757223e+000
1.520000000000001e+000	1.520000e+000	1.000000e+000	4.759219e+000
1.530000000000001e+000	1.530000e+000	1.000000e+000	4.761161e+000
1.540000000000001e+000	1.540000e+000	1.000000e+000	4.763053e+000
1.550000000000001e+000	1.550000e+000	1.000000e+000	4.764896e+000
1.560000000000001e+000	1.560000e+000	1.000000e+000	4.766692e+000
1.570000000000001e+000	1.570000e+000	1.000000e+000	4.768444e+000
1.580000000000001e+000	1.580000e+000	1.000000e+000	4.770152e+000
1.590000000000001e+000	1.590000e+000	1.000000e+000	4.771818e+000
1.600000000000001e+000	1.600000e+000	1.000000e+000	4.773445e+000
1.610000000000001e+000	1.610000e+000	1.000000e+000	4.775033e+000
1.620000000000001e+000	1.620000e+000	1.000000e+000	4.776584e+000
1.630000000000001e+000	1.630000e+000	1.000000e+000	4.778100e+000
1.640000000000001e+000	1.640000e+000	1.000000e+000	4.779581e+000
1.650000000000001e+000	1.650000e+000	1.000000e+000	4.781030e+000
1.660000000000001e+000	1.660000e+000	1.000000e+000	4.782447e+000
1.670000000000001e+000	1.670000e+000	1.000000e+000	4.783834e+000
1.680000000000001e+000	1.680000e+000	1.000000e+000	4.785192e+000
1.690000000000001e+000	1.690000e+000	1.000000e+000	4.786523e+000
1.700000000000001e+000	1.700000e+000	1.000000e+000	4.787827e+000
1.710000000000001e+000	1.710000e+000	1.000000e+000	4.789106e+000
1.720000000000001e+000	1.720000e+000	1.000000e+000	4.790362e+000
1.730000000000001e+000	1.730000e+000	1.000000e+000	4.791596e+000
1.740000000000001e+000	1.740000e+000	1.000000e+000	4.792811e+000
1.750000000000001e+000	1.750000e+000	1.000000e+000	4.794009e+000
1.760000000000001e+000	1.760000e+000	1.000000e+000	4.795192e+000
1.770000000000001e+000	1.770000e+000	1.000000e+000	4.796364e+000
1.780000000000001e+000	1.780000e+000	1.000000e+000	4.797531e+000
1.790000000000001e+000	1.790000e+000	1.000000e+000	4.798697e+000
1.800000000000001e+000	1.800000e+000	1.000000e+000	4.799867e+000
1.810000000000001e+000	1.810000e+000	1.000000e+000	4.801046e+000
1.820000000000001e+000	1.820000e+000	1.000000e+000	4.802239e+000
1.830000000000001e+000	1.830000e+000	1.000000e+000	4.803450e+000
1.840000000000001e+000	1.840000e+000	1.000000e+000	4.804682e+000
1.850000000000001e+000	1.850000e+000	1.000000e+000	4.805938e+000
1.860000000000001e+000	1.860000e+000	1.000000e+000	4.807219e+000
1.870000000000001e+000	1.870000e+000	1.000000e+000	4.808527e+000
1.880000000000001e+000	1.880000e+000	1.000000e+000	4.809863e+000
1.890000000000002e+000	1.890000e+000	1.000000e+000	4.811225e+000
1.900000000000002e+000	1.900000e+000	1.000000e+000	4.812616e+000
1.910000000000002e+000	1.910000e+000	1.000000e+000	4.814033e+000
1.920000000000002e+000	1.920000e+000	1.000000e+000	4.815475e+000
1.930000000000002e+000	1.930000e+000	1.000000e+000	4.816942e+000
1.940000000000002e+000	1.940000e+000	1.000000e+000	4.818432e+000
1.950000000000002e+000	1.950000e+000	1.000000e+000	4.819945e+000
1.960000000000002e+000	1.960000e+000	1.000000e+000	4.821478e+000
1.970000000000002e+000	1.970000e+000	1.000000e+000	4.823031e+000
1.980000000000002e+000	1.980000e+000	1.000000e+000	4.824603e+000
1.990000000000002e+000	1.990000e+000	1.000000e+000	4.826192e+000
2.000000000000001e+000	2.000000e+000	1.000000e+000	4.827797e+000
2.010000000000001e+000	2.010000e+000	1.000000e+000	4.829417e+000
2.020000000000001e+000	2.020000e+000	1.000000e+000	4.831051e+000
2.030000000000001e+000	2.030000e+000	1.000000e+000	4.832698e+000
2.040000000000001e+000	2.040000e+000	1.000000e+000	4.834357e+000
2.050000000000000e+000	2.050000e+000	1.000000e+000	4.836028e+000
2.060000000000000e+000	2.060000e+000	1.000000e+000	4.837708e+000
2.070000000000000e+000	2.070000e+000	1.000000e+000	4.839399e+000
2.080000000000000e+000	2.080000e+000	1.000000e+000	4.841099e+000
2.089999999999999e+000	2.090000e+000	1.000000e+000	4.842806e+000
2.099999999999999e+000	2.100000e+000	1.000000e+000	4.844521e+000
2.109999999999999e+000	2.110000e+000	1.000000e+000	4.846243e+000
2.119999999999999e+000	2.120000e+000	1.000000e+000	4.847971e+000
2.129999999999999e+000	2.130000e+000	1.000000e+000	4.849704e+000
2.139999999999998e+000	2.140000e+000	1.000000e+000	4.851443e+000
2.149999999999998e+000	2.150000e+000	1.000000e+000	4.853186e+000
2.159999999999998e+000	2.160000e+000	1.000000e+000	4.854933e+000
2.169999999999998e+000	2.170000e+000	1.000000e+000	4.856683e+000
2.179999999999998e+000	2.180000e+000	1.000000e+000	4.858436e+000
2.189999999999997e+000	2.190000e+000	1.000000e+000	4.860191e+000
2.199999999999997e+000	2.200000e+000	1.000000e+000	4.861948e+000
2.209999999999997e+000	2.210000e+000	1.000000e+000	4.863707e+000
2.219999999999997e+000	2.220000e+000	1.000000e+000	4.865466e+000
2.229999999999996e+000	2.230000e+000	1.000000e+000	4.867226e+000
2.239999999999996e+000	2.240000e+000	1.000000e+000	4.868985e+000
2.249999999999996e+000	2.250000e+000	1.000000e+000	4.870744e+000
2.259999999999996e+000	2.260000e+000	1.000000e+000	4.872503e+000
2.269999999999996e+000	2.270000e+000	1.000000e+000	4.874260e+000
2.279999999999995e+000	2.280000e+000	1.000000e+000	4.876015e+000
2.289999999999995e+000	2.290000e+000	1.000000e+000	4.877769e+000
2.299999999999995e+000	2.300000e+000	1.000000e+000	4.879520e+000
2.309999999999995e+000	2.310000e+000	1.000000e+000	4.881268e+000
2.319999999999995e+000	2.320000e+000	1.000000e+000	4.883013e+000
2.329999999999994e+000	2.330000e+000	1.000000e+000	4.884755e+000
2.339999999999994e+000	2.340000e+000	1.000000e+000	4.886492e+000
2.349999999999994e+000	2.350000e+000	1.000000e+000	4.888226e+000
2.359999999999994e+000	2.360000e+000	1.000000e+000	4.889955e+000
2.369999999999993e+000	2.370000e+000	1.000000e+000	4.891678e+000
2.379999999999993e+000	2.380000e+000	1.000000e+000	4.893397e+000
2.389999999999993e+000	2.390000e+000	1.000000e+000	4.895110e+000
2.399999999999993e+000	2.400000e+000	1.000000e+000	4.896817e+000
2.409999999999993e+000	2.410000e+000	1.000000e+000	4.898517e+000
2.419999999999992e+000	2.420000e+000	1.000000e+000	4.900211e+000
2.429999999999992e+000	2.430000e+000	1.000000e+000	4.901897e+000
2.439999999999992e+000	2.440000e+000	1.000000e+000	4.903577e+000
2.449999999999992e+000	2.450000e+000	1.000000e+000	4.905249e+000
2.459999999999992e+000	2.460000e+000	1.000000e+000	4.906912e+000
2.469999999999991e+000	2.470000e+000	1.000000e+000	4.908567e+000
2.479999999999991e+000	2.480000e+000	1.000000e+000	4.910213e+000
2.489999999999991e+000	2.490000e+000	1.000000e+000	4.911851e+000
2.499999999999991e+000	2.500000e+000	1.000000e+000	4.913478e+000
2.509999999999991e+000	2.510000e+000	1.000000e+000	4.915096e+000
2.519999999999990e+000	2.520000e+000	1.000000e+000	4.916704e+000
2.529999999999990e+000	2.530000e+000	1.000000e+000	4.918300e+000
2.539999999999990e+000	2.540000e+000	1.000000e+000	4.919886e+000
2.549999999999990e+000	2.550000e+000	1.000000e+000	4.921459e+000
2.559999999999989e+000	2.560000e+000	1.000000e+000	4.923020e+000
2.569999999999989e+000	2.570000e+000	1.000000e+000	4.924570e+000
2.579999999999989e+000	2.580000e+000	1.000000e+000	4.926105e+000
2.589999999999989e+000	2.590000e+000	1.000000e+000	4.927629e+000
2.599999999999989e+000	2.600000e+000	1.000000e+000	4.929139e+000
2.609999999999988e+000	2.610000e+000	1.000000e+000	4.930636e+000
2.619999999999988e+000	2.620000e+000	1.000000e+000	4.932120e+000
2.629999999999988e+000	2.630000e+000	1.000000e+000	4.933591e+000
2.639999999999988e+000	2.640000e+000	1.000000e+000	4.935049e+000
2.649999999999988e+000	2.650000e+000	1.000000e+000	4.936494e+000
2.659999999999987e+000	2.660000e+000	1.000000e+000	4.937927e+000
2.669999999999987e+000	2.670000e+000	1.000000e+000	4.939347e+000
2.679999999999987e+000	2.680000e+000	1.000000e+000	4.940754e+000
2.689999999999987e+000	2.690000e+000	1.000000e+000	4.942149e+000
2.699999999999986e+000	2.700000e+000	1.000000e+000	4.943531e+000
2.709999999999986e+000	2.710000e+000	1.000000e+000	4.944901e+000
2.719999999999986e+000	2.720000e+000	1.000000e+000	4.946259e+000
2.729999999999986e+000	2.730000e+000	1.000000e+000	4.947604e+000
2.739999999999986e+000	2.740000e+000	1.000000e+000	4.948937e+000
2.749999999999985e+000	2.750000e+000	1.000000e+000	4.950257e+000
2.759999999999985e+000	2.760000e+000	1.000000e+000	4.951565e+000
2.769999999999985e+000	2.770000e+000	1.000000e+000	4.952861e+000
2.779999999999985e+000	2.780000e+000	1.000000e+000	4.954145e+000
2.789999999999985e+000	2.790000e+000	1.000000e+000	4.955417e+000
2.799999999999984e+000	2.800000e+000	1.000000e+000	4.956676e+000
2.809999999999984e+000	2.810000e+000	1.000000e+000	4.957924e+000
2.819999999999984e+000	2.820000e+000	1.000000e+000	4.959161e+000
2.829999999999984e+000	2.830000e+000	1.000000e+000	4.960387e+000
2.839999999999983e+000	2.840000e+000	1.000000e+000	4.961602e+000
2.849999999999983e+000	2.850000e+000	1.000000e+000	4.962806e+000
2.859999999999983e+000	2.860000e+000	1.000000e+000	4.964000e+000
2.869999999999983e+000	2.870000e+000	1.000000e+000	4.965184e+000
2.879999999999983e+000	2.880000e+000	1.000000e+000	4.966356e+000
2.889999999999982e+000	2.890000e+000	1.000000e+000	4.967517e+000
2.899999999999982e+000	2.900000e+000	1.000000e+000	4.968666e+000
2.909999999999982e+000	2.910000e+000	1.000000e+000	4.969802e+000
2.919999999999982e+000	2.920000e+000	1.000000e+000	4.970924e+000
2.929999999999982e+000	2.930000e+000	1.000000e+000	4.972032e+000
2.939999999999981e+000	2.940000e+000	1.000000e+000	4.973125e+000
2.949999999999981e+000	2.950000e+000	1.000000e+000	4.974202e+000
2.959999999999981e+000	2.960000e+000	1.000000e+000	4.975263e+000
2.969999999999981e+000	2.970000e+000	1.000000e+000	4.976307e+000
2.979999999999980e+000	2.980000e+000	1.000000e+000	4.977334e+000
2.989999999999980e+000	2.990000e+000	1.000000e+000	4.978343e+000
2.999999999999980e+000	3.000000e+000	1.000000e+000	4.979332e+000
3.009999999999980e+000	3.010000e+000	1.000000e+000	4.980303e+000
