i1	I(I1)	I(I2)	Ix(U27:DRAIN)
0.000000000000000e+000	0.000000e+000	5.000000e-006	5.305764e-006
9.999999999999999e-009	1.000000e-008	5.000000e-006	5.295082e-006
2.000000000000000e-008	2.000000e-008	5.000000e-006	5.284456e-006
3.000000000000000e-008	3.000000e-008	5.000000e-006	5.273836e-006
3.999999999999999e-008	4.000000e-008	5.000000e-006	5.263229e-006
4.999999999999999e-008	5.000000e-008	5.000000e-006	5.252632e-006
6.000000000000000e-008	6.000000e-008	5.000000e-006	5.242045e-006
6.999999999999999e-008	7.000000e-008	5.000000e-006	5.231465e-006
7.999999999999999e-008	8.000000e-008	5.000000e-006	5.220892e-006
8.999999999999999e-008	9.000000e-008	5.000000e-006	5.210326e-006
9.999999999999998e-008	1.000000e-007	5.000000e-006	5.199764e-006
1.100000000000000e-007	1.100000e-007	5.000000e-006	5.189206e-006
1.200000000000000e-007	1.200000e-007	5.000000e-006	5.178653e-006
1.300000000000000e-007	1.300000e-007	5.000000e-006	5.168105e-006
1.400000000000000e-007	1.400000e-007	5.000000e-006	5.157559e-006
1.500000000000000e-007	1.500000e-007	5.000000e-006	5.147017e-006
1.600000000000000e-007	1.600000e-007	5.000000e-006	5.136478e-006
1.700000000000000e-007	1.700000e-007	5.000000e-006	5.125943e-006
1.800000000000001e-007	1.800000e-007	5.000000e-006	5.115409e-006
1.900000000000001e-007	1.900000e-007	5.000000e-006	5.104878e-006
2.000000000000001e-007	2.000000e-007	5.000000e-006	5.094350e-006
2.100000000000001e-007	2.100000e-007	5.000000e-006	5.083823e-006
2.200000000000001e-007	2.200000e-007	5.000000e-006	5.073300e-006
2.300000000000001e-007	2.300000e-007	5.000000e-006	5.062777e-006
2.400000000000001e-007	2.400000e-007	5.000000e-006	5.052257e-006
2.500000000000001e-007	2.500000e-007	5.000000e-006	5.041738e-006
2.600000000000001e-007	2.600000e-007	5.000000e-006	5.031222e-006
2.700000000000001e-007	2.700000e-007	5.000000e-006	5.020706e-006
2.800000000000001e-007	2.800000e-007	5.000000e-006	5.010193e-006
2.900000000000001e-007	2.900000e-007	5.000000e-006	4.999681e-006
3.000000000000002e-007	3.000000e-007	5.000000e-006	4.989170e-006
3.100000000000002e-007	3.100000e-007	5.000000e-006	4.978660e-006
3.200000000000002e-007	3.200000e-007	5.000000e-006	4.968152e-006
3.300000000000002e-007	3.300000e-007	5.000000e-006	4.957645e-006
3.400000000000002e-007	3.400000e-007	5.000000e-006	4.947139e-006
3.500000000000002e-007	3.500000e-007	5.000000e-006	4.936634e-006
3.600000000000002e-007	3.600000e-007	5.000000e-006	4.926131e-006
3.700000000000002e-007	3.700000e-007	5.000000e-006	4.915628e-006
3.800000000000002e-007	3.800000e-007	5.000000e-006	4.905126e-006
3.900000000000002e-007	3.900000e-007	5.000000e-006	4.894626e-006
4.000000000000003e-007	4.000000e-007	5.000000e-006	4.884126e-006
4.100000000000003e-007	4.100000e-007	5.000000e-006	4.873627e-006
4.200000000000003e-007	4.200000e-007	5.000000e-006	4.863129e-006
4.300000000000003e-007	4.300000e-007	5.000000e-006	4.852632e-006
4.400000000000003e-007	4.400000e-007	5.000000e-006	4.842136e-006
4.500000000000003e-007	4.500000e-007	5.000000e-006	4.831640e-006
4.600000000000003e-007	4.600000e-007	5.000000e-006	4.821145e-006
4.700000000000003e-007	4.700000e-007	5.000000e-006	4.810651e-006
4.800000000000003e-007	4.800000e-007	5.000000e-006	4.800158e-006
4.900000000000003e-007	4.900000e-007	5.000000e-006	4.789665e-006
5.000000000000003e-007	5.000000e-007	5.000000e-006	4.779173e-006
5.100000000000003e-007	5.100000e-007	5.000000e-006	4.768682e-006
5.200000000000003e-007	5.200000e-007	5.000000e-006	4.758191e-006
5.300000000000003e-007	5.300000e-007	5.000000e-006	4.747701e-006
5.400000000000003e-007	5.400000e-007	5.000000e-006	4.737211e-006
5.500000000000004e-007	5.500000e-007	5.000000e-006	4.726722e-006
5.600000000000004e-007	5.600000e-007	5.000000e-006	4.716234e-006
5.700000000000004e-007	5.700000e-007	5.000000e-006	4.705746e-006
5.800000000000004e-007	5.800000e-007	5.000000e-006	4.695258e-006
5.900000000000004e-007	5.900000e-007	5.000000e-006	4.684771e-006
6.000000000000004e-007	6.000000e-007	5.000000e-006	4.674285e-006
6.100000000000004e-007	6.100000e-007	5.000000e-006	4.663799e-006
6.200000000000004e-007	6.200000e-007	5.000000e-006	4.653314e-006
6.300000000000004e-007	6.300000e-007	5.000000e-006	4.642829e-006
6.400000000000004e-007	6.400000e-007	5.000000e-006	4.632344e-006
6.500000000000005e-007	6.500000e-007	5.000000e-006	4.621860e-006
6.600000000000005e-007	6.600000e-007	5.000000e-006	4.611376e-006
6.700000000000005e-007	6.700000e-007	5.000000e-006	4.600893e-006
6.800000000000005e-007	6.800000e-007	5.000000e-006	4.590410e-006
6.900000000000005e-007	6.900000e-007	5.000000e-006	4.579927e-006
7.000000000000005e-007	7.000000e-007	5.000000e-006	4.569445e-006
7.100000000000005e-007	7.100000e-007	5.000000e-006	4.558963e-006
7.200000000000005e-007	7.200000e-007	5.000000e-006	4.548482e-006
7.300000000000005e-007	7.300000e-007	5.000000e-006	4.538000e-006
7.400000000000005e-007	7.400000e-007	5.000000e-006	4.527520e-006
7.500000000000006e-007	7.500000e-007	5.000000e-006	4.517039e-006
7.600000000000006e-007	7.600000e-007	5.000000e-006	4.506559e-006
7.700000000000006e-007	7.700000e-007	5.000000e-006	4.496079e-006
7.800000000000006e-007	7.800000e-007	5.000000e-006	4.485599e-006
7.900000000000006e-007	7.900000e-007	5.000000e-006	4.475120e-006
8.000000000000006e-007	8.000000e-007	5.000000e-006	4.464641e-006
8.100000000000006e-007	8.100000e-007	5.000000e-006	4.454163e-006
8.200000000000006e-007	8.200000e-007	5.000000e-006	4.443684e-006
8.300000000000006e-007	8.300000e-007	5.000000e-006	4.433206e-006
8.400000000000006e-007	8.400000e-007	5.000000e-006	4.422728e-006
8.500000000000007e-007	8.500000e-007	5.000000e-006	4.412250e-006
8.600000000000007e-007	8.600000e-007	5.000000e-006	4.401772e-006
8.700000000000007e-007	8.700000e-007	5.000000e-006	4.391295e-006
8.800000000000007e-007	8.800000e-007	5.000000e-006	4.380818e-006
8.900000000000007e-007	8.900000e-007	5.000000e-006	4.370342e-006
9.000000000000007e-007	9.000000e-007	5.000000e-006	4.359865e-006
9.100000000000007e-007	9.100000e-007	5.000000e-006	4.349388e-006
9.200000000000007e-007	9.200000e-007	5.000000e-006	4.338912e-006
9.300000000000007e-007	9.300000e-007	5.000000e-006	4.328436e-006
9.400000000000007e-007	9.400000e-007	5.000000e-006	4.317961e-006
9.500000000000008e-007	9.500000e-007	5.000000e-006	4.307485e-006
9.600000000000008e-007	9.600000e-007	5.000000e-006	4.297010e-006
9.700000000000007e-007	9.700000e-007	5.000000e-006	4.286534e-006
9.800000000000006e-007	9.800000e-007	5.000000e-006	4.276059e-006
9.900000000000005e-007	9.900000e-007	5.000000e-006	4.265584e-006
1.000000000000000e-006	1.000000e-006	5.000000e-006	4.255110e-006
1.010000000000000e-006	1.010000e-006	5.000000e-006	4.244635e-006
1.020000000000000e-006	1.020000e-006	5.000000e-006	4.234161e-006
1.030000000000000e-006	1.030000e-006	5.000000e-006	4.223686e-006
1.040000000000000e-006	1.040000e-006	5.000000e-006	4.213212e-006
1.050000000000000e-006	1.050000e-006	5.000000e-006	4.202738e-006
1.060000000000000e-006	1.060000e-006	5.000000e-006	4.192264e-006
1.070000000000000e-006	1.070000e-006	5.000000e-006	4.181791e-006
1.080000000000000e-006	1.080000e-006	5.000000e-006	4.171317e-006
1.090000000000000e-006	1.090000e-006	5.000000e-006	4.160844e-006
1.099999999999999e-006	1.100000e-006	5.000000e-006	4.150370e-006
1.109999999999999e-006	1.110000e-006	5.000000e-006	4.139897e-006
1.119999999999999e-006	1.120000e-006	5.000000e-006	4.129424e-006
1.129999999999999e-006	1.130000e-006	5.000000e-006	4.118951e-006
1.139999999999999e-006	1.140000e-006	5.000000e-006	4.108478e-006
1.149999999999999e-006	1.150000e-006	5.000000e-006	4.098005e-006
1.159999999999999e-006	1.160000e-006	5.000000e-006	4.087532e-006
1.169999999999999e-006	1.170000e-006	5.000000e-006	4.077059e-006
1.179999999999999e-006	1.180000e-006	5.000000e-006	4.066587e-006
1.189999999999999e-006	1.190000e-006	5.000000e-006	4.056114e-006
1.199999999999999e-006	1.200000e-006	5.000000e-006	4.045642e-006
1.209999999999998e-006	1.210000e-006	5.000000e-006	4.035169e-006
1.219999999999998e-006	1.220000e-006	5.000000e-006	4.024697e-006
1.229999999999998e-006	1.230000e-006	5.000000e-006	4.014225e-006
1.239999999999998e-006	1.240000e-006	5.000000e-006	4.003753e-006
1.249999999999998e-006	1.250000e-006	5.000000e-006	3.993281e-006
1.259999999999998e-006	1.260000e-006	5.000000e-006	3.982809e-006
1.269999999999998e-006	1.270000e-006	5.000000e-006	3.972337e-006
1.279999999999998e-006	1.280000e-006	5.000000e-006	3.961865e-006
1.289999999999998e-006	1.290000e-006	5.000000e-006	3.951393e-006
1.299999999999998e-006	1.300000e-006	5.000000e-006	3.940921e-006
1.309999999999997e-006	1.310000e-006	5.000000e-006	3.930449e-006
1.319999999999997e-006	1.320000e-006	5.000000e-006	3.919978e-006
1.329999999999997e-006	1.330000e-006	5.000000e-006	3.909506e-006
1.339999999999997e-006	1.340000e-006	5.000000e-006	3.899034e-006
1.349999999999997e-006	1.350000e-006	5.000000e-006	3.888562e-006
1.359999999999997e-006	1.360000e-006	5.000000e-006	3.878091e-006
1.369999999999997e-006	1.370000e-006	5.000000e-006	3.867619e-006
1.379999999999997e-006	1.380000e-006	5.000000e-006	3.857147e-006
1.389999999999997e-006	1.390000e-006	5.000000e-006	3.846676e-006
1.399999999999997e-006	1.400000e-006	5.000000e-006	3.836205e-006
1.409999999999997e-006	1.410000e-006	5.000000e-006	3.825733e-006
1.419999999999996e-006	1.420000e-006	5.000000e-006	3.815262e-006
1.429999999999996e-006	1.430000e-006	5.000000e-006	3.804790e-006
1.439999999999996e-006	1.440000e-006	5.000000e-006	3.794318e-006
1.449999999999996e-006	1.450000e-006	5.000000e-006	3.783847e-006
1.459999999999996e-006	1.460000e-006	5.000000e-006	3.773376e-006
1.469999999999996e-006	1.470000e-006	5.000000e-006	3.762904e-006
1.479999999999996e-006	1.480000e-006	5.000000e-006	3.752433e-006
1.489999999999996e-006	1.490000e-006	5.000000e-006	3.741961e-006
1.499999999999996e-006	1.500000e-006	5.000000e-006	3.731489e-006
1.509999999999996e-006	1.510000e-006	5.000000e-006	3.721018e-006
1.519999999999995e-006	1.520000e-006	5.000000e-006	3.710546e-006
1.529999999999995e-006	1.530000e-006	5.000000e-006	3.700075e-006
1.539999999999995e-006	1.540000e-006	5.000000e-006	3.689603e-006
1.549999999999995e-006	1.550000e-006	5.000000e-006	3.679132e-006
1.559999999999995e-006	1.560000e-006	5.000000e-006	3.668660e-006
1.569999999999995e-006	1.570000e-006	5.000000e-006	3.658188e-006
1.579999999999995e-006	1.580000e-006	5.000000e-006	3.647717e-006
1.589999999999995e-006	1.590000e-006	5.000000e-006	3.637245e-006
1.599999999999995e-006	1.600000e-006	5.000000e-006	3.626773e-006
1.609999999999995e-006	1.610000e-006	5.000000e-006	3.616301e-006
1.619999999999994e-006	1.620000e-006	5.000000e-006	3.605830e-006
1.629999999999994e-006	1.630000e-006	5.000000e-006	3.595358e-006
1.639999999999994e-006	1.640000e-006	5.000000e-006	3.584886e-006
1.649999999999994e-006	1.650000e-006	5.000000e-006	3.574414e-006
1.659999999999994e-006	1.660000e-006	5.000000e-006	3.563942e-006
1.669999999999994e-006	1.670000e-006	5.000000e-006	3.553470e-006
1.679999999999994e-006	1.680000e-006	5.000000e-006	3.542998e-006
1.689999999999994e-006	1.690000e-006	5.000000e-006	3.532526e-006
1.699999999999994e-006	1.700000e-006	5.000000e-006	3.522053e-006
1.709999999999994e-006	1.710000e-006	5.000000e-006	3.511581e-006
1.719999999999994e-006	1.720000e-006	5.000000e-006	3.501109e-006
1.729999999999993e-006	1.730000e-006	5.000000e-006	3.490637e-006
1.739999999999993e-006	1.740000e-006	5.000000e-006	3.480164e-006
1.749999999999993e-006	1.750000e-006	5.000000e-006	3.469692e-006
1.759999999999993e-006	1.760000e-006	5.000000e-006	3.459219e-006
1.769999999999993e-006	1.770000e-006	5.000000e-006	3.448746e-006
1.779999999999993e-006	1.780000e-006	5.000000e-006	3.438274e-006
1.789999999999993e-006	1.790000e-006	5.000000e-006	3.427801e-006
1.799999999999993e-006	1.800000e-006	5.000000e-006	3.417328e-006
1.809999999999993e-006	1.810000e-006	5.000000e-006	3.406855e-006
1.819999999999993e-006	1.820000e-006	5.000000e-006	3.396382e-006
1.829999999999992e-006	1.830000e-006	5.000000e-006	3.385909e-006
1.839999999999992e-006	1.840000e-006	5.000000e-006	3.375436e-006
1.849999999999992e-006	1.850000e-006	5.000000e-006	3.364962e-006
1.859999999999992e-006	1.860000e-006	5.000000e-006	3.354489e-006
1.869999999999992e-006	1.870000e-006	5.000000e-006	3.344016e-006
1.879999999999992e-006	1.880000e-006	5.000000e-006	3.333542e-006
1.889999999999992e-006	1.890000e-006	5.000000e-006	3.323068e-006
1.899999999999992e-006	1.900000e-006	5.000000e-006	3.312595e-006
1.909999999999992e-006	1.910000e-006	5.000000e-006	3.302121e-006
1.919999999999992e-006	1.920000e-006	5.000000e-006	3.291647e-006
1.929999999999992e-006	1.930000e-006	5.000000e-006	3.281173e-006
1.939999999999992e-006	1.940000e-006	5.000000e-006	3.270699e-006
1.949999999999992e-006	1.950000e-006	5.000000e-006	3.260224e-006
1.959999999999991e-006	1.960000e-006	5.000000e-006	3.249750e-006
1.969999999999991e-006	1.970000e-006	5.000000e-006	3.239275e-006
1.979999999999991e-006	1.980000e-006	5.000000e-006	3.228801e-006
1.989999999999991e-006	1.990000e-006	5.000000e-006	3.218326e-006
1.999999999999991e-006	2.000000e-006	5.000000e-006	3.207851e-006
2.009999999999991e-006	2.010000e-006	5.000000e-006	3.197376e-006
2.019999999999991e-006	2.020000e-006	5.000000e-006	3.186901e-006
2.029999999999991e-006	2.030000e-006	5.000000e-006	3.176426e-006
2.039999999999991e-006	2.040000e-006	5.000000e-006	3.165951e-006
2.049999999999991e-006	2.050000e-006	5.000000e-006	3.155475e-006
2.059999999999990e-006	2.060000e-006	5.000000e-006	3.145000e-006
2.069999999999990e-006	2.070000e-006	5.000000e-006	3.134524e-006
2.079999999999990e-006	2.080000e-006	5.000000e-006	3.124048e-006
2.089999999999990e-006	2.090000e-006	5.000000e-006	3.113572e-006
2.099999999999990e-006	2.100000e-006	5.000000e-006	3.103096e-006
2.109999999999990e-006	2.110000e-006	5.000000e-006	3.092620e-006
2.119999999999990e-006	2.120000e-006	5.000000e-006	3.082143e-006
2.129999999999990e-006	2.130000e-006	5.000000e-006	3.071667e-006
2.139999999999990e-006	2.140000e-006	5.000000e-006	3.061190e-006
2.149999999999990e-006	2.150000e-006	5.000000e-006	3.050713e-006
2.159999999999990e-006	2.160000e-006	5.000000e-006	3.040236e-006
2.169999999999989e-006	2.170000e-006	5.000000e-006	3.029759e-006
2.179999999999989e-006	2.180000e-006	5.000000e-006	3.019282e-006
2.189999999999989e-006	2.190000e-006	5.000000e-006	3.008804e-006
2.199999999999989e-006	2.200000e-006	5.000000e-006	2.998327e-006
2.209999999999989e-006	2.210000e-006	5.000000e-006	2.987849e-006
2.219999999999989e-006	2.220000e-006	5.000000e-006	2.977371e-006
2.229999999999989e-006	2.230000e-006	5.000000e-006	2.966893e-006
2.239999999999989e-006	2.240000e-006	5.000000e-006	2.956415e-006
2.249999999999989e-006	2.250000e-006	5.000000e-006	2.945936e-006
2.259999999999989e-006	2.260000e-006	5.000000e-006	2.935458e-006
2.269999999999988e-006	2.270000e-006	5.000000e-006	2.924979e-006
2.279999999999988e-006	2.280000e-006	5.000000e-006	2.914500e-006
2.289999999999988e-006	2.290000e-006	5.000000e-006	2.904021e-006
2.299999999999988e-006	2.300000e-006	5.000000e-006	2.893542e-006
2.309999999999988e-006	2.310000e-006	5.000000e-006	2.883062e-006
2.319999999999988e-006	2.320000e-006	5.000000e-006	2.872582e-006
2.329999999999988e-006	2.330000e-006	5.000000e-006	2.862103e-006
2.339999999999988e-006	2.340000e-006	5.000000e-006	2.851623e-006
2.349999999999988e-006	2.350000e-006	5.000000e-006	2.841143e-006
2.359999999999988e-006	2.360000e-006	5.000000e-006	2.830662e-006
2.369999999999988e-006	2.370000e-006	5.000000e-006	2.820181e-006
2.379999999999987e-006	2.380000e-006	5.000000e-006	2.809701e-006
2.389999999999987e-006	2.390000e-006	5.000000e-006	2.799220e-006
2.399999999999987e-006	2.400000e-006	5.000000e-006	2.788739e-006
2.409999999999987e-006	2.410000e-006	5.000000e-006	2.778257e-006
2.419999999999987e-006	2.420000e-006	5.000000e-006	2.767776e-006
2.429999999999987e-006	2.430000e-006	5.000000e-006	2.757294e-006
2.439999999999987e-006	2.440000e-006	5.000000e-006	2.746812e-006
2.449999999999987e-006	2.450000e-006	5.000000e-006	2.736330e-006
2.459999999999987e-006	2.460000e-006	5.000000e-006	2.725847e-006
2.469999999999987e-006	2.470000e-006	5.000000e-006	2.715365e-006
2.479999999999986e-006	2.480000e-006	5.000000e-006	2.704882e-006
2.489999999999986e-006	2.490000e-006	5.000000e-006	2.694399e-006
2.499999999999986e-006	2.500000e-006	5.000000e-006	2.683915e-006
2.509999999999986e-006	2.510000e-006	5.000000e-006	2.673432e-006
2.519999999999986e-006	2.520000e-006	5.000000e-006	2.662948e-006
2.529999999999986e-006	2.530000e-006	5.000000e-006	2.652464e-006
2.539999999999986e-006	2.540000e-006	5.000000e-006	2.641980e-006
2.549999999999986e-006	2.550000e-006	5.000000e-006	2.631496e-006
2.559999999999986e-006	2.560000e-006	5.000000e-006	2.621011e-006
2.569999999999986e-006	2.570000e-006	5.000000e-006	2.610527e-006
2.579999999999986e-006	2.580000e-006	5.000000e-006	2.600041e-006
2.589999999999985e-006	2.590000e-006	5.000000e-006	2.589556e-006
2.599999999999985e-006	2.600000e-006	5.000000e-006	2.579070e-006
2.609999999999985e-006	2.610000e-006	5.000000e-006	2.568585e-006
2.619999999999985e-006	2.620000e-006	5.000000e-006	2.558099e-006
2.629999999999985e-006	2.630000e-006	5.000000e-006	2.547612e-006
2.639999999999985e-006	2.640000e-006	5.000000e-006	2.537126e-006
2.649999999999985e-006	2.650000e-006	5.000000e-006	2.526639e-006
2.659999999999985e-006	2.660000e-006	5.000000e-006	2.516152e-006
2.669999999999985e-006	2.670000e-006	5.000000e-006	2.505664e-006
2.679999999999985e-006	2.680000e-006	5.000000e-006	2.495177e-006
2.689999999999984e-006	2.690000e-006	5.000000e-006	2.484689e-006
2.699999999999984e-006	2.700000e-006	5.000000e-006	2.474201e-006
2.709999999999984e-006	2.710000e-006	5.000000e-006	2.463713e-006
2.719999999999984e-006	2.720000e-006	5.000000e-006	2.453224e-006
2.729999999999984e-006	2.730000e-006	5.000000e-006	2.442735e-006
2.739999999999984e-006	2.740000e-006	5.000000e-006	2.432246e-006
2.749999999999984e-006	2.750000e-006	5.000000e-006	2.421757e-006
2.759999999999984e-006	2.760000e-006	5.000000e-006	2.411267e-006
2.769999999999984e-006	2.770000e-006	5.000000e-006	2.400777e-006
2.779999999999984e-006	2.780000e-006	5.000000e-006	2.390286e-006
2.789999999999984e-006	2.790000e-006	5.000000e-006	2.379796e-006
2.799999999999983e-006	2.800000e-006	5.000000e-006	2.369305e-006
2.809999999999983e-006	2.810000e-006	5.000000e-006	2.358814e-006
2.819999999999983e-006	2.820000e-006	5.000000e-006	2.348322e-006
2.829999999999983e-006	2.830000e-006	5.000000e-006	2.337831e-006
2.839999999999983e-006	2.840000e-006	5.000000e-006	2.327339e-006
2.849999999999983e-006	2.850000e-006	5.000000e-006	2.316846e-006
2.859999999999983e-006	2.860000e-006	5.000000e-006	2.306354e-006
2.869999999999983e-006	2.870000e-006	5.000000e-006	2.295861e-006
2.879999999999983e-006	2.880000e-006	5.000000e-006	2.285367e-006
2.889999999999983e-006	2.890000e-006	5.000000e-006	2.274874e-006
2.899999999999982e-006	2.900000e-006	5.000000e-006	2.264380e-006
2.909999999999982e-006	2.910000e-006	5.000000e-006	2.253886e-006
2.919999999999982e-006	2.920000e-006	5.000000e-006	2.243391e-006
2.929999999999982e-006	2.930000e-006	5.000000e-006	2.232896e-006
2.939999999999982e-006	2.940000e-006	5.000000e-006	2.222401e-006
2.949999999999982e-006	2.950000e-006	5.000000e-006	2.211906e-006
2.959999999999982e-006	2.960000e-006	5.000000e-006	2.201410e-006
2.969999999999982e-006	2.970000e-006	5.000000e-006	2.190914e-006
2.979999999999982e-006	2.980000e-006	5.000000e-006	2.180417e-006
2.989999999999982e-006	2.990000e-006	5.000000e-006	2.169920e-006
2.999999999999981e-006	3.000000e-006	5.000000e-006	2.159423e-006
3.009999999999981e-006	3.010000e-006	5.000000e-006	2.148926e-006
